date Tue May 05 04:50:04.367987 PM 2021
base hex  timestamps absolute
internal events logged
Begin Triggerblock Tue May 05 04:50:04.376 PM 2021
 0.000000 Start of measurement
 0.000000 1  215             Rx   d 8 00 00 00 00 00 00 1F 03
 0.000856 1  315             Rx   d 8 00 00 00 00 00 00 00 00
 0.009869 1  215             Rx   d 8 01 00 00 00 00 00 1F 03
 0.010024 1  315             Rx   d 8 00 00 00 00 00 00 00 00
 0.019793 1  215             Rx   d 8 02 00 00 00 00 00 1F 03
 0.020002 1  315             Rx   d 8 00 00 00 00 00 00 00 00
 0.030056 1  215             Rx   d 8 02 88 02 00 00 00 1F 03
 0.030212 1  315             Rx   d 8 00 00 00 00 00 00 00 00
 0.039796 1  215             Rx   d 8 02 88 02 00 00 00 1F 03
 0.039972 1  315             Rx   d 8 00 00 00 00 00 00 00 00
 0.049869 1  215             Rx   d 8 03 00 00 00 08 00 1F 03
 0.050054 1  315             Rx   d 8 00 00 00 00 00 00 00 00
 0.050299 1  415             Rx   d 8 00 00 00 00 00 00 00 00
 0.050547 1  515             Rx   d 8 00 00 00 00 00 00 00 00
 0.059756 1  215             Rx   d 8 03 00 00 00 08 00 1F 03
 0.059995 1  315             Rx   d 8 00 00 00 00 00 00 00 00
 0.060240 1  415             Rx   d 8 00 00 00 00 00 00 00 00
 0.060515 1  515             Rx   d 8 00 00 00 00 00 00 00 00
 0.069898 1  215             Rx   d 8 03 00 00 00 08 01 1F 03
 0.070107 1  315             Rx   d 8 00 00 00 00 00 00 00 00
 0.070404 1  415             Rx   d 8 00 00 00 00 00 00 00 00
 0.070683 1  515             Rx   d 8 00 00 00 00 00 00 00 00
 0.079838 1  215             Rx   d 8 03 00 00 00 08 01 1F 03
 0.080000 1  315             Rx   d 8 00 00 00 00 00 00 00 00
 0.080245 1  415             Rx   d 8 00 00 00 00 00 00 00 00
 0.080514 1  515             Rx   d 8 00 00 00 00 00 00 00 00
 0.090055 1  215             Rx   d 8 03 00 00 00 08 01 1F 03
 0.090318 1  315             Rx   d 8 00 00 00 00 00 00 00 00
 0.090591 1  415             Rx   d 8 00 00 00 00 00 00 00 00
 0.091096 1  515             Rx   d 8 00 00 00 00 00 00 00 00
 0.099767 1  215             Rx   d 8 03 00 00 00 08 01 1F 03
 0.100025 1  315             Rx   d 8 00 00 00 00 00 00 00 00
 0.100269 1  415             Rx   d 8 00 00 00 00 00 00 00 00
 0.100542 1  515             Rx   d 8 00 00 00 00 00 00 00 00
 0.110035 1  215             Rx   d 8 03 00 00 00 08 01 1F 03
 0.110283 1  315             Rx   d 8 00 00 00 00 00 00 00 00
 0.110554 1  415             Rx   d 8 00 00 00 00 00 00 00 00
 0.110763 1  515             Rx   d 8 00 00 00 00 00 00 00 00
 0.119785 1  215             Rx   d 8 03 00 00 00 08 01 1F 03
 0.120018 1  315             Rx   d 8 00 00 00 00 00 00 00 00
 0.120297 1  415             Rx   d 8 00 00 00 00 00 00 00 00
 0.120543 1  515             Rx   d 8 00 00 00 00 00 00 00 00
 0.129861 1  215             Rx   d 8 03 00 00 00 08 01 1F 03
 0.130140 1  315             Rx   d 8 00 00 00 00 00 00 00 00
 0.130368 1  415             Rx   d 8 00 00 00 00 00 00 00 00
 0.130610 1  515             Rx   d 8 00 00 00 00 00 00 00 00
 0.139777 1  215             Rx   d 8 03 00 00 00 08 01 1F 03
 0.140024 1  315             Rx   d 8 00 00 00 00 00 00 00 00
 0.140280 1  415             Rx   d 8 00 00 00 00 00 00 00 00
 0.140513 1  515             Rx   d 8 00 00 00 00 00 00 00 00
 0.149851 1  215             Rx   d 8 03 00 00 00 08 01 1F 03
 0.150133 1  315             Rx   d 8 00 00 00 00 00 00 00 00
 0.150380 1  415             Rx   d 8 00 00 00 00 00 00 00 00
 0.150648 1  515             Rx   d 8 00 00 00 00 00 00 00 00
 0.159780 1  215             Rx   d 8 03 00 00 00 08 01 1F 03
 0.160080 1  315             Rx   d 8 00 00 00 00 00 00 00 00
 0.160327 1  415             Rx   d 8 00 00 00 00 00 00 00 00
 0.160571 1  515             Rx   d 8 00 00 00 00 00 00 00 00
 0.169858 1  215             Rx   d 8 03 00 00 00 08 01 1F 03
 0.170158 1  315             Rx   d 8 00 00 00 00 00 00 00 00
 0.170408 1  415             Rx   d 8 00 00 00 00 00 00 00 00
 0.170715 1  515             Rx   d 8 00 00 00 00 00 00 00 00
 0.179780 1  215             Rx   d 8 03 00 00 00 08 01 1F 03
 0.180078 1  315             Rx   d 8 00 00 00 00 00 00 00 00
 0.180334 1  415             Rx   d 8 00 00 00 00 00 00 00 00
 0.180593 1  515             Rx   d 8 00 00 00 00 00 00 00 00
 0.190040 1  215             Rx   d 8 03 00 00 00 08 01 1F 03
 0.190317 1  315             Rx   d 8 00 00 00 00 00 00 00 00
 0.190573 1  415             Rx   d 8 00 00 00 00 00 00 00 00
 0.190814 1  515             Rx   d 8 00 00 00 00 00 00 00 00
 0.199856 1  215             Rx   d 8 03 00 00 00 08 01 1F 03
 0.200268 1  315             Rx   d 8 00 00 00 00 FE FF FF FF
 0.200572 1  415             Rx   d 8 00 00 00 00 00 00 00 00
 0.201056 1  515             Rx   d 8 00 00 00 00 00 00 00 00
 0.209878 1  215             Rx   d 8 03 00 00 00 08 01 1F 03
 0.210188 1  315             Rx   d 8 00 00 00 00 FE FF FF FF
 0.210439 1  415             Rx   d 8 00 00 00 00 00 00 00 00
 0.210956 1  515             Rx   d 8 00 00 00 00 00 00 00 00
 0.219801 1  215             Rx   d 8 03 00 00 00 08 01 1F 03
 0.220104 1  315             Rx   d 8 00 00 00 00 FD FF FF FF
 0.220353 1  415             Rx   d 8 00 00 00 00 00 00 00 00
 0.220613 1  515             Rx   d 8 00 00 00 00 00 00 00 00
 0.229884 1  215             Rx   d 8 03 00 00 00 08 01 1F 03
 0.230178 1  315             Rx   d 8 00 00 00 00 FD FF FF FF
 0.230437 1  415             Rx   d 8 00 00 00 00 00 00 00 00
 0.230710 1  515             Rx   d 8 00 00 00 00 00 00 00 00
 0.239831 1  215             Rx   d 8 03 00 00 00 08 01 1F 03
 0.240105 1  315             Rx   d 8 00 00 00 00 FD FF FF FF
 0.240355 1  415             Rx   d 8 00 00 00 00 00 00 00 00
 0.240597 1  515             Rx   d 8 00 00 00 00 00 00 00 00
 0.249906 1  215             Rx   d 8 03 00 00 00 08 01 1F 03
 0.250175 1  315             Rx   d 8 00 00 00 00 FD FF FF FF
 0.250455 1  415             Rx   d 8 00 00 00 00 00 00 00 00
 0.250714 1  515             Rx   d 8 00 00 00 00 00 00 00 00
 0.259811 1  215             Rx   d 8 03 00 00 00 08 01 1F 03
 0.260108 1  315             Rx   d 8 F6 FF FF FF 06 00 00 00
 0.260359 1  415             Rx   d 8 00 00 00 00 00 00 00 00
 0.260597 1  515             Rx   d 8 00 00 00 00 00 00 00 00
 0.270155 1  215             Rx   d 8 03 00 00 00 08 01 1F 03
 0.270394 1  315             Rx   d 8 F6 FF FF FF 06 00 00 00
 0.270736 1  415             Rx   d 8 00 00 00 00 00 00 00 00
 0.270987 1  515             Rx   d 8 00 00 00 00 00 00 00 00
 0.279902 1  215             Rx   d 8 03 00 00 00 08 01 1F 03
 0.280138 1  315             Rx   d 8 C7 FF FF FF 32 00 00 00
 0.280387 1  415             Rx   d 8 00 00 00 00 00 00 00 00
 0.280650 1  515             Rx   d 8 00 00 00 00 00 00 00 00
 0.289941 1  215             Rx   d 8 03 00 00 00 08 01 1F 03
 0.290182 1  315             Rx   d 8 C7 FF FF FF 32 00 00 00
 0.290436 1  415             Rx   d 8 00 00 00 00 00 00 00 00
 0.290708 1  515             Rx   d 8 00 00 00 00 00 00 00 00
 0.299894 1  215             Rx   d 8 03 00 00 00 08 01 1F 03
 0.300129 1  315             Rx   d 8 6F FF FF FF 9A 00 00 00
 0.300382 1  415             Rx   d 8 00 00 00 00 00 00 00 00
 0.300644 1  515             Rx   d 8 00 00 00 00 00 00 00 00
 0.309977 1  215             Rx   d 8 03 00 00 00 08 01 1F 03
 0.310164 1  315             Rx   d 8 6F FF FF FF 9A 00 00 00
 0.310441 1  415             Rx   d 8 00 00 00 00 00 00 00 00
 0.310711 1  515             Rx   d 8 00 00 00 00 00 00 00 00
 0.319899 1  215             Rx   d 8 03 00 00 00 08 01 1F 03
 0.320115 1  315             Rx   d 8 07 FF FF FF FC 00 00 00
 0.320381 1  415             Rx   d 8 00 00 00 00 00 00 00 00
 0.320622 1  515             Rx   d 8 00 00 00 00 00 00 00 00
 0.330024 1  215             Rx   d 8 03 00 00 00 08 01 1F 03
 0.330374 1  315             Rx   d 8 07 FF FF FF FC 00 00 00
 0.330672 1  415             Rx   d 8 00 00 00 00 00 00 00 00
 0.331223 1  515             Rx   d 8 00 00 00 00 00 00 00 00
 0.339893 1  215             Rx   d 8 03 00 00 00 08 01 1F 03
 0.340127 1  315             Rx   d 8 9E FE FF FF 65 01 00 00
 0.340370 1  415             Rx   d 8 00 00 00 00 00 00 00 00
 0.340813 1  515             Rx   d 8 00 00 00 00 00 00 00 00
 0.350204 1  215             Rx   d 8 03 00 00 00 08 01 1F 03
 0.350392 1  315             Rx   d 8 9E FE FF FF 65 01 00 00
 0.350736 1  415             Rx   d 8 00 00 00 00 00 00 00 00
 0.350990 1  515             Rx   d 8 00 00 00 00 00 00 00 00
 0.359920 1  215             Rx   d 8 03 00 00 00 08 01 1F 03
 0.360104 1  315             Rx   d 8 51 FE FF FF B9 01 00 00
 0.360381 1  415             Rx   d 8 00 00 00 00 00 00 00 00
 0.360611 1  515             Rx   d 8 00 00 00 00 00 00 00 00
 0.369979 1  215             Rx   d 8 03 00 00 00 08 01 1F 03
 0.370212 1  315             Rx   d 8 51 FE FF FF B9 01 00 00
 0.370438 1  415             Rx   d 8 00 00 00 00 00 00 00 00
 0.370708 1  515             Rx   d 8 00 00 00 00 00 00 00 00
 0.379919 1  215             Rx   d 8 03 00 00 00 08 01 1F 03
 0.380134 1  315             Rx   d 8 28 FE FF FF E0 01 00 00
 0.380384 1  415             Rx   d 8 00 00 00 00 00 00 00 00
 0.380620 1  515             Rx   d 8 00 00 00 00 00 00 00 00
 0.389942 1  215             Rx   d 8 03 00 00 00 08 01 1F 03
 0.390208 1  315             Rx   d 8 28 FE FF FF E0 01 00 00
 0.390509 1  415             Rx   d 8 00 00 00 00 00 00 00 00
 0.390765 1  515             Rx   d 8 00 00 00 00 00 00 00 00
 0.399874 1  215             Rx   d 8 03 00 00 00 08 01 1F 03
 0.400115 1  315             Rx   d 8 35 FE FF FF D3 01 00 00
 0.400395 1  415             Rx   d 8 00 00 00 00 00 00 00 00
 0.400698 1  515             Rx   d 8 00 00 00 00 00 00 00 00
 0.410018 1  215             Rx   d 8 03 00 00 00 08 01 1F 03
 0.410205 1  315             Rx   d 8 35 FE FF FF D3 01 00 00
 0.410508 1  415             Rx   d 8 00 00 00 00 00 00 00 00
 0.410733 1  515             Rx   d 8 00 00 00 00 00 00 00 00
 0.419946 1  215             Rx   d 8 03 00 00 00 08 01 1F 03
 0.420136 1  315             Rx   d 8 67 FE FF FF A2 01 00 00
 0.420412 1  415             Rx   d 8 00 00 00 00 00 00 00 00
 0.420690 1  515             Rx   d 8 00 00 00 00 00 00 00 00
 0.430203 1  215             Rx   d 8 03 00 00 00 08 01 1F 03
 0.430411 1  315             Rx   d 8 67 FE FF FF A2 01 00 00
 0.430755 1  415             Rx   d 8 00 00 00 00 00 00 00 00
 0.431007 1  515             Rx   d 8 00 00 00 00 00 00 00 00
 0.439834 1  215             Rx   d 8 03 00 00 00 08 01 1F 03
 0.440325 1  315             Rx   d 8 A9 FE FF FF 5F 01 00 00
 0.440653 1  415             Rx   d 8 00 00 00 00 00 00 00 00
 0.440877 1  515             Rx   d 8 00 00 00 00 00 00 00 00
 0.450033 1  215             Rx   d 8 03 00 00 00 08 01 1F 03
 0.450253 1  315             Rx   d 8 A9 FE FF FF 5F 01 00 00
 0.450530 1  415             Rx   d 8 00 00 00 00 00 00 00 00
 0.450748 1  515             Rx   d 8 00 00 00 00 00 00 00 00
 0.459877 1  215             Rx   d 8 03 00 00 00 08 01 1F 03
 0.460149 1  315             Rx   d 8 E8 FE FF FF 22 01 00 00
 0.460398 1  415             Rx   d 8 00 00 00 00 00 00 00 00
 0.460721 1  515             Rx   d 8 00 00 00 00 00 00 00 00
 0.470023 1  215             Rx   d 8 03 00 00 00 08 01 1F 03
 0.470212 1  315             Rx   d 8 E8 FE FF FF 22 01 00 00
 0.470517 1  415             Rx   d 8 00 00 00 00 00 00 00 00
 0.470763 1  515             Rx   d 8 00 00 00 00 00 00 00 00
 0.479941 1  215             Rx   d 8 03 00 00 00 08 01 1F 03
 0.480186 1  315             Rx   d 8 0F FF FF FF FD 00 00 00
 0.480510 1  415             Rx   d 8 00 00 00 00 00 00 00 00
 0.480766 1  515             Rx   d 8 00 00 00 00 00 00 00 00
 0.490019 1  215             Rx   d 8 03 00 00 00 08 01 1F 03
 0.490211 1  315             Rx   d 8 0F FF FF FF FD 00 00 00
 0.490515 1  415             Rx   d 8 00 00 00 00 00 00 00 00
 0.490765 1  515             Rx   d 8 00 00 00 00 00 00 00 00
 0.499973 1  215             Rx   d 8 03 00 00 00 08 01 1F 03
 0.500157 1  315             Rx   d 8 13 FF FF FF 02 01 00 00
 0.500404 1  415             Rx   d 8 00 00 00 00 00 00 00 00
 0.500709 1  515             Rx   d 8 00 00 00 00 00 00 00 00
 0.510227 1  215             Rx   d 8 03 00 00 00 08 01 1F 03
 0.510413 1  315             Rx   d 8 13 FF FF FF 02 01 00 00
 0.510705 1  415             Rx   d 8 00 00 00 00 00 00 00 00
 0.510950 1  515             Rx   d 8 00 00 00 00 00 00 00 00
 0.519972 1  215             Rx   d 8 03 00 00 00 08 01 1F 03
 0.520160 1  315             Rx   d 8 F7 FE FF FF 1E 01 00 00
 0.520434 1  415             Rx   d 8 00 00 00 00 00 00 00 00
 0.520706 1  515             Rx   d 8 00 00 00 00 00 00 00 00
 0.530030 1  215             Rx   d 8 03 00 00 00 08 01 1F 03
 0.530265 1  315             Rx   d 8 F7 FE FF FF 1E 01 00 00
 0.530516 1  415             Rx   d 8 00 00 00 00 00 00 00 00
 0.530766 1  515             Rx   d 8 00 00 00 00 00 00 00 00
 0.540211 1  215             Rx   d 8 03 00 00 00 08 01 1F 03
 0.540212 1  315             Rx   d 8 CA FE FF FF 48 01 00 00
 0.540646 1  415             Rx   d 8 00 00 00 00 00 00 00 00
 0.541126 1  515             Rx   d 8 00 00 00 00 00 00 00 00
 0.550045 1  215             Rx   d 8 03 00 00 00 08 01 1F 03
 0.550262 1  315             Rx   d 8 CA FE FF FF 48 01 00 00
 0.550514 1  415             Rx   d 8 00 00 00 00 00 00 00 00
 0.550741 1  515             Rx   d 8 00 00 00 00 00 00 00 00
 0.559956 1  215             Rx   d 8 03 00 00 00 08 01 1F 03
 0.560180 1  315             Rx   d 8 97 FE FF FF 72 01 00 00
 0.560422 1  415             Rx   d 8 00 00 00 00 00 00 00 00
 0.560699 1  515             Rx   d 8 00 00 00 00 00 00 00 00
 0.570055 1  215             Rx   d 8 03 00 00 00 08 01 1F 03
 0.570236 1  315             Rx   d 8 97 FE FF FF 72 01 00 00
 0.570521 1  415             Rx   d 8 00 00 00 00 00 00 00 00
 0.570765 1  515             Rx   d 8 00 00 00 00 00 00 00 00
 0.579974 1  215             Rx   d 8 03 00 00 00 08 01 1F 03
 0.580215 1  315             Rx   d 8 70 FE FF FF 92 01 00 00
 0.580519 1  415             Rx   d 8 00 00 00 00 00 00 00 00
 0.580769 1  515             Rx   d 8 00 00 00 00 00 00 00 00
 0.590223 1  215             Rx   d 8 03 00 00 00 08 01 1F 03
 0.590414 1  315             Rx   d 8 70 FE FF FF 92 01 00 00
 0.590702 1  415             Rx   d 8 00 00 00 00 00 00 00 00
 0.590926 1  515             Rx   d 8 00 00 00 00 00 00 00 00
 0.599992 1  215             Rx   d 8 03 00 00 00 08 01 1F 03
 0.600183 1  315             Rx   d 8 61 FE FF FF 9B 01 00 00
 0.600431 1  415             Rx   d 8 00 00 00 00 00 00 00 00
 0.600702 1  515             Rx   d 8 00 00 00 00 00 00 00 00
 0.610044 1  215             Rx   d 8 03 00 00 00 08 01 1F 03
 0.610236 1  315             Rx   d 8 61 FE FF FF 9B 01 00 00
 0.610513 1  415             Rx   d 8 00 00 00 00 00 00 00 00
 0.610763 1  515             Rx   d 8 00 00 00 00 00 00 00 00
 0.619997 1  215             Rx   d 8 03 00 00 00 08 01 1F 03
 0.620183 1  315             Rx   d 8 62 FE FF FF 8F 01 00 00
 0.620433 1  415             Rx   d 8 00 00 00 00 00 00 00 00
 0.620703 1  515             Rx   d 8 00 00 00 00 00 00 00 00
 0.630074 1  215             Rx   d 8 03 00 00 00 08 01 1F 03
 0.630262 1  315             Rx   d 8 62 FE FF FF 8F 01 00 00
 0.630513 1  415             Rx   d 8 00 00 00 00 00 00 00 00
 0.630758 1  515             Rx   d 8 00 00 00 00 00 00 00 00
 0.639985 1  215             Rx   d 8 03 00 00 00 08 01 1F 03
 0.640184 1  315             Rx   d 8 77 FE FF FF 76 01 00 00
 0.640432 1  415             Rx   d 8 00 00 00 00 00 00 00 00
 0.640702 1  515             Rx   d 8 00 00 00 00 00 00 00 00
 0.650132 1  215             Rx   d 8 03 00 00 00 08 01 1F 03
 0.650529 1  315             Rx   d 8 77 FE FF FF 76 01 00 00
 0.650793 1  415             Rx   d 8 00 00 00 00 00 00 00 00
 0.651252 1  515             Rx   d 8 00 00 00 00 00 00 00 00
 0.659954 1  215             Rx   d 8 03 00 00 00 08 01 1F 03
 0.660204 1  315             Rx   d 8 94 FE FF FF 58 01 00 00
 0.660717 1  415             Rx   d 8 00 00 00 00 00 00 00 00
 0.660718 1  515             Rx   d 8 00 00 00 00 00 00 00 00
 0.670248 1  215             Rx   d 8 03 00 00 00 08 01 1F 03
 0.670512 1  315             Rx   d 8 94 FE FF FF 58 01 00 00
 0.670786 1  415             Rx   d 8 00 00 00 00 00 00 00 00
 0.671049 1  515             Rx   d 8 00 00 00 00 00 00 00 00
 0.680017 1  215             Rx   d 8 03 00 00 00 08 01 1F 03
 0.680206 1  315             Rx   d 8 B1 FE FF FF 40 01 00 00
 0.680508 1  415             Rx   d 8 00 00 00 00 00 00 00 00
 0.680760 1  515             Rx   d 8 00 00 00 00 00 00 00 00
 0.690076 1  215             Rx   d 8 03 00 00 00 08 01 1F 03
 0.690261 1  315             Rx   d 8 B1 FE FF FF 40 01 00 00
 0.690515 1  415             Rx   d 8 00 00 00 00 00 00 00 00
 0.690765 1  515             Rx   d 8 00 00 00 00 00 00 00 00
 0.699998 1  215             Rx   d 8 03 00 00 00 08 01 1F 03
 0.700232 1  315             Rx   d 8 C9 FE FF FF 35 01 00 00
 0.700513 1  415             Rx   d 8 00 00 00 00 00 00 00 00
 0.700761 1  515             Rx   d 8 00 00 00 00 00 00 00 00
 0.710074 1  215             Rx   d 8 03 00 00 00 08 01 1F 03
 0.710259 1  315             Rx   d 8 C9 FE FF FF 35 01 00 00
 0.710511 1  415             Rx   d 8 00 00 00 00 00 00 00 00
 0.710757 1  515             Rx   d 8 00 00 00 00 00 00 00 00
 0.720021 1  215             Rx   d 8 03 00 00 00 08 01 1F 03
 0.720207 1  315             Rx   d 8 CF FE FF FF 38 01 00 00
 0.720512 1  415             Rx   d 8 00 00 00 00 00 00 00 00
 0.720761 1  515             Rx   d 8 00 00 00 00 00 00 00 00
 0.730100 1  215             Rx   d 8 03 00 00 00 08 01 1F 03
 0.730284 1  315             Rx   d 8 CF FE FF FF 38 01 00 00
 0.730537 1  415             Rx   d 8 00 00 00 00 00 00 00 00
 0.730788 1  515             Rx   d 8 00 00 00 00 00 00 00 00
 0.740022 1  215             Rx   d 8 03 00 00 00 08 01 1F 03
 0.740202 1  315             Rx   d 8 C5 FE FF FF 41 01 00 00
 0.740511 1  415             Rx   d 8 00 00 00 00 00 00 00 00
 0.740760 1  515             Rx   d 8 00 00 00 00 00 00 00 00
 0.750304 1  215             Rx   d 8 03 00 00 00 08 01 1F 03
 0.750513 1  315             Rx   d 8 C5 FE FF FF 41 01 00 00
 0.750735 1  415             Rx   d 8 00 00 00 00 00 00 00 00
 0.750981 1  515             Rx   d 8 00 00 00 00 00 00 00 00
 0.760231 1  215             Rx   d 8 03 00 00 00 08 01 1F 03
 0.760419 1  315             Rx   d 8 AE FE FF FF 52 01 00 00
 0.760685 1  415             Rx   d 8 00 00 00 00 00 00 00 00
 0.760935 1  515             Rx   d 8 00 00 00 00 00 00 00 00
 0.770043 1  215             Rx   d 8 03 00 00 00 08 01 1F 03
 0.770373 1  315             Rx   d 8 AE FE FF FF 52 01 00 00
 0.770804 1  415             Rx   d 8 00 00 00 00 00 00 00 00
 0.770805 1  515             Rx   d 8 00 00 00 00 00 00 00 00
 0.780020 1  215             Rx   d 8 03 00 00 00 08 01 1F 03
 0.780206 1  315             Rx   d 8 92 FE FF FF 63 01 00 00
 0.780510 1  415             Rx   d 8 00 00 00 00 00 00 00 00
 0.780757 1  515             Rx   d 8 00 00 00 00 00 00 00 00
 0.790098 1  215             Rx   d 8 03 00 00 00 08 01 1F 03
 0.790283 1  315             Rx   d 8 92 FE FF FF 63 01 00 00
 0.790536 1  415             Rx   d 8 00 00 00 00 00 00 00 00
 0.790781 1  515             Rx   d 8 00 00 00 00 00 00 00 00
 0.800038 1  215             Rx   d 8 03 00 00 00 08 01 1F 03
 0.800227 1  315             Rx   d 8 7B FE FF FF 73 01 00 00
 0.800510 1  415             Rx   d 8 00 00 00 00 00 00 00 00
 0.800729 1  515             Rx   d 8 00 00 00 00 00 00 00 00
 0.810102 1  215             Rx   d 8 03 00 00 00 08 01 1F 03
 0.810312 1  315             Rx   d 8 7B FE FF FF 73 01 00 00
 0.810564 1  415             Rx   d 8 00 00 00 00 00 00 00 00
 0.810788 1  515             Rx   d 8 00 00 00 00 00 00 00 00
 0.820044 1  215             Rx   d 8 03 00 00 00 08 01 1F 03
 0.820227 1  315             Rx   d 8 69 FE FF FF 7A 01 00 00
 0.820509 1  415             Rx   d 8 00 00 00 00 00 00 00 00
 0.820756 1  515             Rx   d 8 00 00 00 00 00 00 00 00
 0.830304 1  215             Rx   d 8 03 00 00 00 08 01 1F 03
 0.830511 1  315             Rx   d 8 69 FE FF FF 7A 01 00 00
 0.830733 1  415             Rx   d 8 00 00 00 00 00 00 00 00
 0.830985 1  515             Rx   d 8 00 00 00 00 00 00 00 00
 0.840016 1  215             Rx   d 8 03 00 00 00 08 01 1F 03
 0.840256 1  315             Rx   d 8 6D FE FF FF 7B 01 00 00
 0.840505 1  415             Rx   d 8 00 00 00 00 00 00 00 00
 0.840753 1  515             Rx   d 8 00 00 00 00 00 00 00 00
 0.850120 1  215             Rx   d 8 03 00 00 00 08 01 1F 03
 0.850310 1  315             Rx   d 8 6D FE FF FF 7B 01 00 00
 0.850564 1  415             Rx   d 8 00 00 00 00 00 00 00 00
 0.850813 1  515             Rx   d 8 00 00 00 00 00 00 00 00
 0.860040 1  215             Rx   d 8 03 00 00 00 08 01 1F 03
 0.860234 1  315             Rx   d 8 83 FE FF FF 76 01 00 00
 0.860503 1  415             Rx   d 8 00 00 00 00 00 00 00 00
 0.860760 1  515             Rx   d 8 00 00 00 00 00 00 00 00
 0.870116 1  215             Rx   d 8 03 00 00 00 08 01 1F 03
 0.870309 1  315             Rx   d 8 83 FE FF FF 76 01 00 00
 0.870566 1  415             Rx   d 8 00 00 00 00 00 00 00 00
 0.870812 1  515             Rx   d 8 00 00 00 00 00 00 00 00
 0.880275 1  215             Rx   d 8 03 00 00 00 08 01 1F 03
 0.880276 1  315             Rx   d 8 99 FE FF FF 66 01 00 00
 0.880720 1  415             Rx   d 8 00 00 00 00 00 00 00 00
 0.881253 1  515             Rx   d 8 00 00 00 00 00 00 00 00
 0.890124 1  215             Rx   d 8 03 00 00 00 08 01 1F 03
 0.890308 1  315             Rx   d 8 99 FE FF FF 66 01 00 00
 0.890561 1  415             Rx   d 8 00 00 00 00 00 00 00 00
 0.890806 1  515             Rx   d 8 00 00 00 00 00 00 00 00
 0.900034 1  215             Rx   d 8 03 00 00 00 08 01 1F 03
 0.900280 1  315             Rx   d 8 AC FE FF FF 5E 01 00 00
 0.900575 1  415             Rx   d 8 00 00 00 00 00 00 00 00
 0.900849 1  515             Rx   d 8 00 00 00 00 00 00 00 00
 0.910310 1  215             Rx   d 8 03 00 00 00 08 01 1F 03
 0.910546 1  315             Rx   d 8 AC FE FF FF 5E 01 00 00
 0.910791 1  415             Rx   d 8 00 00 00 00 00 00 00 00
 0.911041 1  515             Rx   d 8 00 00 00 00 00 00 00 00
 0.920040 1  215             Rx   d 8 03 00 00 00 08 01 1F 03
 0.920254 1  315             Rx   d 8 B8 FE FF FF 5C 01 00 00
 0.920505 1  415             Rx   d 8 00 00 00 00 00 00 00 00
 0.920731 1  515             Rx   d 8 00 00 00 00 00 00 00 00
 0.930120 1  215             Rx   d 8 03 00 00 00 08 01 1F 03
 0.930336 1  315             Rx   d 8 B8 FE FF FF 5C 01 00 00
 0.930563 1  415             Rx   d 8 00 00 00 00 00 00 00 00
 0.930813 1  515             Rx   d 8 00 00 00 00 00 00 00 00
 0.940063 1  215             Rx   d 8 03 00 00 00 08 01 1F 03
 0.940256 1  315             Rx   d 8 B6 FE FF FF 5C 01 00 00
 0.940507 1  415             Rx   d 8 00 00 00 00 00 00 00 00
 0.940753 1  515             Rx   d 8 00 00 00 00 00 00 00 00
 0.950148 1  215             Rx   d 8 03 00 00 00 08 01 1F 03
 0.950335 1  315             Rx   d 8 B6 FE FF FF 5C 01 00 00
 0.950586 1  415             Rx   d 8 00 00 00 00 00 00 00 00
 0.950836 1  515             Rx   d 8 00 00 00 00 00 00 00 00
 0.960066 1  215             Rx   d 8 03 00 00 00 08 01 1F 03
 0.960256 1  315             Rx   d 8 AA FE FF FF 61 01 00 00
 0.960507 1  415             Rx   d 8 00 00 00 00 00 00 00 00
 0.960753 1  515             Rx   d 8 00 00 00 00 00 00 00 00
 0.970149 1  215             Rx   d 8 03 00 00 00 08 01 1F 03
 0.970332 1  315             Rx   d 8 AA FE FF FF 61 01 00 00
 0.970561 1  415             Rx   d 8 00 00 00 00 00 00 00 00
 0.970842 1  515             Rx   d 8 00 00 00 00 00 00 00 00
 0.980066 1  215             Rx   d 8 03 00 00 00 08 01 1F 03
 0.980277 1  315             Rx   d 8 99 FE FF FF 67 01 00 00
 0.980533 1  415             Rx   d 8 00 00 00 00 00 00 00 00
 0.980753 1  515             Rx   d 8 00 00 00 00 00 00 00 00
 0.990236 1  215             Rx   d 8 03 00 00 00 08 01 1F 03
 0.990531 1  315             Rx   d 8 99 FE FF FF 67 01 00 00
 0.990784 1  415             Rx   d 8 00 00 00 00 00 00 00 00
 0.991008 1  515             Rx   d 8 00 00 00 00 00 00 00 00
 1.000002 1  215             Rx   d 8 03 00 00 00 08 01 1F 03
 1.000500 1  315             Rx   d 8 8B FE FF FF 6F 01 00 00
 1.000990 1  415             Rx   d 8 00 00 00 00 00 00 00 00
 1.001260 1  515             Rx   d 8 00 00 00 00 00 00 00 00
 1.010074 1  215             Rx   d 8 03 00 00 00 08 01 1F 03
 1.010345 1  315             Rx   d 8 8B FE FF FF 6F 01 00 00
 1.010628 1  415             Rx   d 8 00 00 00 00 00 00 00 00
 1.011026 1  515             Rx   d 8 00 00 00 00 00 00 00 00
 1.020094 1  215             Rx   d 8 03 00 00 00 08 01 1F 03
 1.020283 1  315             Rx   d 8 84 FE FF FF 73 01 00 00
 1.020513 1  415             Rx   d 8 00 00 00 00 00 00 00 00
 1.020762 1  515             Rx   d 8 00 00 00 00 00 00 00 00
 1.030146 1  215             Rx   d 8 03 00 00 00 08 01 1F 03
 1.030356 1  315             Rx   d 8 84 FE FF FF 73 01 00 00
 1.030588 1  415             Rx   d 8 00 00 00 00 00 00 00 00
 1.030836 1  515             Rx   d 8 00 00 00 00 00 00 00 00
 1.040083 1  215             Rx   d 8 03 00 00 00 08 01 1F 03
 1.040279 1  315             Rx   d 8 85 FE FF FF 76 01 00 00
 1.040529 1  415             Rx   d 8 00 00 00 00 00 00 00 00
 1.040780 1  515             Rx   d 8 00 00 00 00 00 00 00 00
 1.050167 1  215             Rx   d 8 03 00 00 00 08 01 1F 03
 1.050361 1  315             Rx   d 8 85 FE FF FF 76 01 00 00
 1.050613 1  415             Rx   d 8 00 00 00 00 00 00 00 00
 1.050863 1  515             Rx   d 8 00 00 00 00 00 00 00 00
 1.060090 1  215             Rx   d 8 03 00 00 00 08 01 1F 03
 1.060272 1  315             Rx   d 8 8B FE FF FF 75 01 00 00
 1.060507 1  415             Rx   d 8 00 00 00 00 00 00 00 00
 1.060779 1  515             Rx   d 8 00 00 00 00 00 00 00 00
 1.070352 1  215             Rx   d 8 03 00 00 00 08 01 1F 03
 1.070560 1  315             Rx   d 8 8B FE FF FF 75 01 00 00
 1.070810 1  415             Rx   d 8 00 00 00 00 00 00 00 00
 1.071060 1  515             Rx   d 8 00 00 00 00 00 00 00 00
 1.080092 1  215             Rx   d 8 03 00 00 00 08 01 1F 03
 1.080300 1  315             Rx   d 8 91 FE FF FF 74 01 00 00
 1.080555 1  415             Rx   d 8 00 00 00 00 00 00 00 00
 1.080771 1  515             Rx   d 8 00 00 00 00 00 00 00 00
 1.090174 1  215             Rx   d 8 03 00 00 00 08 01 1F 03
 1.090360 1  315             Rx   d 8 91 FE FF FF 74 01 00 00
 1.090618 1  415             Rx   d 8 00 00 00 00 00 00 00 00
 1.090868 1  515             Rx   d 8 00 00 00 00 00 00 00 00
 1.100090 1  215             Rx   d 8 03 00 00 00 08 01 1F 03
 1.100306 1  315             Rx   d 8 97 FE FF FF 72 01 00 00
 1.100558 1  415             Rx   d 8 00 00 00 00 00 00 00 00
 1.100781 1  515             Rx   d 8 00 00 00 00 00 00 00 00
 1.110169 1  215             Rx   d 8 03 00 00 00 08 01 1F 03
 1.110383 1  315             Rx   d 8 97 FE FF FF 72 01 00 00
 1.110726 1  415             Rx   d 8 00 00 00 00 00 00 00 00
 1.110971 1  515             Rx   d 8 00 00 00 00 00 00 00 00
 1.120329 1  215             Rx   d 8 03 00 00 00 08 01 1F 03
 1.120330 1  315             Rx   d 8 9E FE FF FF 6C 01 00 00
 1.120793 1  415             Rx   d 8 00 00 00 00 00 00 00 00
 1.121271 1  515             Rx   d 8 00 00 00 00 00 00 00 00
 1.130170 1  215             Rx   d 8 03 00 00 00 08 01 1F 03
 1.130357 1  315             Rx   d 8 9E FE FF FF 6C 01 00 00
 1.130635 1  415             Rx   d 8 00 00 00 00 00 00 00 00
 1.130855 1  515             Rx   d 8 00 00 00 00 00 00 00 00
 1.140087 1  215             Rx   d 8 03 00 00 00 08 01 1F 03
 1.140295 1  315             Rx   d 8 9E FE FF FF 64 01 00 00
 1.140550 1  415             Rx   d 8 00 00 00 00 00 00 00 00
 1.140802 1  515             Rx   d 8 00 00 00 00 00 00 00 00
 1.150381 1  215             Rx   d 8 03 00 00 00 08 01 1F 03
 1.150586 1  315             Rx   d 8 9E FE FF FF 64 01 00 00
 1.150839 1  415             Rx   d 8 00 00 00 00 00 00 00 00
 1.151088 1  515             Rx   d 8 00 00 00 00 00 00 00 00
 1.160115 1  215             Rx   d 8 03 00 00 00 08 01 1F 03
 1.160305 1  315             Rx   d 8 9A FE FF FF 60 01 00 00
 1.160565 1  415             Rx   d 8 00 00 00 00 00 00 00 00
 1.160810 1  515             Rx   d 8 00 00 00 00 00 00 00 00
 1.170169 1  215             Rx   d 8 03 00 00 00 08 01 1F 03
 1.170411 1  315             Rx   d 8 9A FE FF FF 60 01 00 00
 1.170724 1  415             Rx   d 8 00 00 00 00 00 00 00 00
 1.170975 1  515             Rx   d 8 00 00 00 00 00 00 00 00
 1.180114 1  215             Rx   d 8 03 00 00 00 08 01 1F 03
 1.180302 1  315             Rx   d 8 97 FE FF FF 5E 01 00 00
 1.180559 1  415             Rx   d 8 00 00 00 00 00 00 00 00
 1.180812 1  515             Rx   d 8 00 00 00 00 00 00 00 00
 1.190164 1  215             Rx   d 8 03 00 00 00 08 01 1F 03
 1.190383 1  315             Rx   d 8 97 FE FF FF 5E 01 00 00
 1.190723 1  415             Rx   d 8 00 00 00 00 00 00 00 00
 1.190977 1  515             Rx   d 8 00 00 00 00 00 00 00 00
 1.200119 1  215             Rx   d 8 03 00 00 00 08 01 1F 03
 1.200330 1  315             Rx   d 8 96 FE FF FF 61 01 00 00
 1.200556 1  415             Rx   d 8 00 00 00 00 00 00 00 00
 1.200831 1  515             Rx   d 8 00 00 00 00 00 00 00 00
 1.210193 1  215             Rx   d 8 03 00 00 00 08 01 1F 03
 1.210403 1  315             Rx   d 8 96 FE FF FF 61 01 00 00
 1.210719 1  415             Rx   d 8 00 00 00 00 00 00 00 00
 1.210970 1  515             Rx   d 8 00 00 00 00 00 00 00 00
 1.220115 1  215             Rx   d 8 03 00 00 00 08 01 1F 03
 1.220325 1  315             Rx   d 8 91 FE FF FF 63 01 00 00
 1.220581 1  415             Rx   d 8 00 00 00 00 00 00 00 00
 1.220805 1  515             Rx   d 8 00 00 00 00 00 00 00 00
 1.230383 1  215             Rx   d 8 03 00 00 00 08 01 1F 03
 1.230583 1  315             Rx   d 8 91 FE FF FF 63 01 00 00
 1.230833 1  415             Rx   d 8 00 00 00 00 00 00 00 00
 1.231084 1  515             Rx   d 8 00 00 00 00 00 00 00 00
 1.240102 1  215             Rx   d 8 03 00 00 00 08 01 1F 03
 1.240592 1  315             Rx   d 8 8E FE FF FF 66 01 00 00
 1.240593 1  415             Rx   d 8 00 00 00 00 00 00 00 00
 1.241039 1  515             Rx   d 8 00 00 00 00 00 00 00 00
 1.250221 1  215             Rx   d 8 03 00 00 00 08 01 1F 03
 1.250401 1  315             Rx   d 8 8E FE FF FF 66 01 00 00
 1.250693 1  415             Rx   d 8 00 00 00 00 00 00 00 00
 1.250965 1  515             Rx   d 8 00 00 00 00 00 00 00 00
 1.260135 1  215             Rx   d 8 03 00 00 00 08 01 1F 03
 1.260325 1  315             Rx   d 8 8F FE FF FF 65 01 00 00
 1.260563 1  415             Rx   d 8 00 00 00 00 00 00 00 00
 1.260828 1  515             Rx   d 8 00 00 00 00 00 00 00 00
 1.270201 1  215             Rx   d 8 03 00 00 00 08 01 1F 03
 1.270407 1  315             Rx   d 8 8F FE FF FF 65 01 00 00
 1.270724 1  415             Rx   d 8 00 00 00 00 00 00 00 00
 1.270999 1  515             Rx   d 8 00 00 00 00 00 00 00 00
 1.280135 1  215             Rx   d 8 03 00 00 00 08 01 1F 03
 1.280328 1  315             Rx   d 8 91 FE FF FF 63 01 00 00
 1.280579 1  415             Rx   d 8 00 00 00 00 00 00 00 00
 1.280831 1  515             Rx   d 8 00 00 00 00 00 00 00 00
 1.290218 1  215             Rx   d 8 03 00 00 00 08 01 1F 03
 1.290406 1  315             Rx   d 8 91 FE FF FF 63 01 00 00
 1.290691 1  415             Rx   d 8 00 00 00 00 00 00 00 00
 1.290973 1  515             Rx   d 8 00 00 00 00 00 00 00 00
 1.300135 1  215             Rx   d 8 03 00 00 00 08 01 1F 03
 1.300326 1  315             Rx   d 8 91 FE FF FF 61 01 00 00
 1.300578 1  415             Rx   d 8 00 00 00 00 00 00 00 00
 1.300823 1  515             Rx   d 8 00 00 00 00 00 00 00 00
 1.310403 1  215             Rx   d 8 03 00 00 00 08 01 1F 03
 1.310605 1  315             Rx   d 8 91 FE FF FF 61 01 00 00
 1.310856 1  415             Rx   d 8 00 00 00 00 00 00 00 00
 1.311111 1  515             Rx   d 8 00 00 00 00 00 00 00 00
 1.320138 1  215             Rx   d 8 03 00 00 00 08 01 1F 03
 1.320380 1  315             Rx   d 8 93 FE FF FF 62 01 00 00
 1.320722 1  415             Rx   d 8 00 00 00 00 00 00 00 00
 1.320973 1  515             Rx   d 8 00 00 00 00 00 00 00 00
 1.330222 1  215             Rx   d 8 03 00 00 00 08 01 1F 03
 1.330406 1  315             Rx   d 8 93 FE FF FF 62 01 00 00
 1.330696 1  415             Rx   d 8 00 00 00 00 00 00 00 00
 1.330920 1  515             Rx   d 8 00 00 00 00 00 00 00 00
 1.340333 1  215             Rx   d 8 03 00 00 00 08 01 1F 03
 1.340634 1  315             Rx   d 8 93 FE FF FF 67 01 00 00
 1.340903 1  415             Rx   d 8 00 00 00 00 00 00 00 00
 1.341306 1  515             Rx   d 8 00 00 00 00 00 00 00 00
 1.350181 1  215             Rx   d 8 03 00 00 00 08 01 1F 03
 1.350495 1  315             Rx   d 8 93 FE FF FF 67 01 00 00
 1.350790 1  415             Rx   d 8 00 00 00 00 00 00 00 00
 1.351306 1  515             Rx   d 8 00 00 00 00 00 00 00 00
 1.360156 1  215             Rx   d 8 03 00 00 00 08 01 1F 03
 1.360347 1  315             Rx   d 8 96 FE FF FF 6D 01 00 00
 1.360599 1  415             Rx   d 8 00 00 00 00 00 00 00 00
 1.360841 1  515             Rx   d 8 00 00 00 00 00 00 00 00
 1.370209 1  215             Rx   d 8 03 00 00 00 08 01 1F 03
 1.370399 1  315             Rx   d 8 96 FE FF FF 6D 01 00 00
 1.370684 1  415             Rx   d 8 00 00 00 00 00 00 00 00
 1.370941 1  515             Rx   d 8 00 00 00 00 00 00 00 00
 1.380166 1  215             Rx   d 8 03 00 00 00 08 01 1F 03
 1.380358 1  315             Rx   d 8 97 FE FF FF 71 01 00 00
 1.380607 1  415             Rx   d 8 00 00 00 00 00 00 00 00
 1.380857 1  515             Rx   d 8 00 00 00 00 00 00 00 00
 1.390420 1  215             Rx   d 8 03 00 00 00 08 01 1F 03
 1.390632 1  315             Rx   d 8 97 FE FF FF 71 01 00 00
 1.390877 1  415             Rx   d 8 00 00 00 00 00 00 00 00
 1.391132 1  515             Rx   d 8 00 00 00 00 00 00 00 00
 1.400162 1  215             Rx   d 8 03 00 00 00 08 01 1F 03
 1.400351 1  315             Rx   d 8 99 FE FF FF 72 01 00 00
 1.400601 1  415             Rx   d 8 00 00 00 00 00 00 00 00
 1.400853 1  515             Rx   d 8 00 00 00 00 00 00 00 00
 1.410240 1  215             Rx   d 8 03 00 00 00 08 01 1F 03
 1.410503 1  315             Rx   d 8 99 FE FF FF 72 01 00 00
 1.410802 1  415             Rx   d 8 00 00 00 00 00 00 00 00
 1.411054 1  515             Rx   d 8 00 00 00 00 00 00 00 00
 1.420160 1  215             Rx   d 8 03 00 00 00 08 01 1F 03
 1.420404 1  315             Rx   d 8 9A FE FF FF 73 01 00 00
 1.420720 1  415             Rx   d 8 00 00 00 00 00 00 00 00
 1.420944 1  515             Rx   d 8 00 00 00 00 00 00 00 00
 1.430241 1  215             Rx   d 8 03 00 00 00 08 01 1F 03
 1.430502 1  315             Rx   d 8 9A FE FF FF 73 01 00 00
 1.430775 1  415             Rx   d 8 00 00 00 00 00 00 00 00
 1.431000 1  515             Rx   d 8 00 00 00 00 00 00 00 00
 1.440189 1  215             Rx   d 8 03 00 00 00 08 01 1F 03
 1.440377 1  315             Rx   d 8 97 FE FF FF 74 01 00 00
 1.440720 1  415             Rx   d 8 00 00 00 00 00 00 00 00
 1.440971 1  515             Rx   d 8 00 00 00 00 00 00 00 00
 1.450276 1  215             Rx   d 8 03 00 00 00 08 01 1F 03
 1.450672 1  315             Rx   d 8 97 FE FF FF 74 01 00 00
 1.450998 1  415             Rx   d 8 00 00 00 00 00 00 00 00
 1.451244 1  515             Rx   d 8 00 00 00 00 00 00 00 00
 1.460199 1  215             Rx   d 8 03 00 00 00 08 01 1F 03
 1.460384 1  315             Rx   d 8 92 FE FF FF 74 01 00 00
 1.460737 1  415             Rx   d 8 00 00 00 00 00 00 00 00
 1.461004 1  515             Rx   d 8 00 00 00 00 00 00 00 00
 1.470438 1  215             Rx   d 8 03 00 00 00 08 01 1F 03
 1.470664 1  315             Rx   d 8 92 FE FF FF 74 01 00 00
 1.470911 1  415             Rx   d 8 00 00 00 00 00 00 00 00
 1.471233 1  515             Rx   d 8 00 00 00 00 00 00 00 00
 1.480195 1  215             Rx   d 8 03 00 00 00 08 01 1F 03
 1.480380 1  315             Rx   d 8 8B FE FF FF 74 01 00 00
 1.480725 1  415             Rx   d 8 00 00 00 00 00 00 00 00
 1.480950 1  515             Rx   d 8 00 00 00 00 00 00 00 00
 1.490268 1  215             Rx   d 8 03 00 00 00 08 01 1F 03
 1.490500 1  315             Rx   d 8 8B FE FF FF 74 01 00 00
 1.490801 1  415             Rx   d 8 00 00 00 00 00 00 00 00
 1.491047 1  515             Rx   d 8 00 00 00 00 00 00 00 00
 1.500187 1  215             Rx   d 8 03 00 00 00 08 01 1F 03
 1.500401 1  315             Rx   d 8 82 FE FF FF 79 01 00 00
 1.500686 1  415             Rx   d 8 00 00 00 00 00 00 00 00
 1.500938 1  515             Rx   d 8 00 00 00 00 00 00 00 00
 1.510265 1  215             Rx   d 8 03 00 00 00 08 01 1F 03
 1.510501 1  315             Rx   d 8 82 FE FF FF 79 01 00 00
 1.510801 1  415             Rx   d 8 00 00 00 00 00 00 00 00
 1.511052 1  515             Rx   d 8 00 00 00 00 00 00 00 00
 1.520187 1  215             Rx   d 8 03 00 00 00 08 01 1F 03
 1.520399 1  315             Rx   d 8 82 FE FF FF 7D 01 00 00
 1.520716 1  415             Rx   d 8 00 00 00 00 00 00 00 00
 1.520992 1  515             Rx   d 8 00 00 00 00 00 00 00 00
 1.530266 1  215             Rx   d 8 03 00 00 00 08 01 1F 03
 1.530500 1  315             Rx   d 8 82 FE FF FF 7D 01 00 00
 1.530749 1  415             Rx   d 8 00 00 00 00 00 00 00 00
 1.531000 1  515             Rx   d 8 00 00 00 00 00 00 00 00
 1.540189 1  215             Rx   d 8 03 00 00 00 08 01 1F 03
 1.540379 1  315             Rx   d 8 85 FE FF FF 7A 01 00 00
 1.540695 1  415             Rx   d 8 00 00 00 00 00 00 00 00
 1.540946 1  515             Rx   d 8 00 00 00 00 00 00 00 00
 1.550474 1  215             Rx   d 8 03 00 00 00 08 01 1F 03
 1.550700 1  315             Rx   d 8 85 FE FF FF 7A 01 00 00
 1.550943 1  415             Rx   d 8 00 00 00 00 00 00 00 00
 1.551216 1  515             Rx   d 8 00 00 00 00 00 00 00 00
 1.560191 1  215             Rx   d 8 03 00 00 00 08 01 1F 03
 1.560634 1  315             Rx   d 8 88 FE FF FF 75 01 00 00
 1.560635 1  415             Rx   d 8 00 00 00 00 00 00 00 00
 1.561119 1  515             Rx   d 8 00 00 00 00 00 00 00 00
 1.570263 1  215             Rx   d 8 03 00 00 00 08 01 1F 03
 1.570501 1  315             Rx   d 8 88 FE FF FF 75 01 00 00
 1.570795 1  415             Rx   d 8 00 00 00 00 00 00 00 00
 1.571047 1  515             Rx   d 8 00 00 00 00 00 00 00 00
 1.580211 1  215             Rx   d 8 03 00 00 00 08 01 1F 03
 1.580419 1  315             Rx   d 8 8F FE FF FF 70 01 00 00
 1.580684 1  415             Rx   d 8 00 00 00 00 00 00 00 00
 1.580935 1  515             Rx   d 8 00 00 00 00 00 00 00 00
 1.590273 1  215             Rx   d 8 03 00 00 00 08 01 1F 03
 1.590504 1  315             Rx   d 8 8F FE FF FF 70 01 00 00
 1.590727 1  415             Rx   d 8 00 00 00 00 00 00 00 00
 1.590977 1  515             Rx   d 8 00 00 00 00 00 00 00 00
 1.600118 1  215             Rx   d 8 03 00 00 00 08 01 1F 03
 1.600384 1  315             Rx   d 8 95 FE FF FF 69 01 00 00
 1.600664 1  415             Rx   d 8 00 00 00 00 00 00 00 00
 1.600905 1  515             Rx   d 8 00 00 00 00 00 00 00 00
 1.610216 1  215             Rx   d 8 03 00 00 00 08 01 1F 03
 1.610493 1  315             Rx   d 8 95 FE FF FF 69 01 00 00
 1.610717 1  415             Rx   d 8 00 00 00 00 00 00 00 00
 1.610969 1  515             Rx   d 8 00 00 00 00 00 00 00 00
 1.620208 1  215             Rx   d 8 03 00 00 00 08 01 1F 03
 1.620496 1  315             Rx   d 8 94 FE FF FF 63 01 00 00
 1.620777 1  415             Rx   d 8 00 00 00 00 00 00 00 00
 1.621028 1  515             Rx   d 8 00 00 00 00 00 00 00 00
 1.630467 1  215             Rx   d 8 03 00 00 00 08 01 1F 03
 1.630686 1  315             Rx   d 8 94 FE FF FF 63 01 00 00
 1.630938 1  415             Rx   d 8 00 00 00 00 00 00 00 00
 1.631189 1  515             Rx   d 8 00 00 00 00 00 00 00 00
 1.640212 1  215             Rx   d 8 03 00 00 00 08 01 1F 03
 1.640422 1  315             Rx   d 8 8E FE FF FF 66 01 00 00
 1.640690 1  415             Rx   d 8 00 00 00 00 00 00 00 00
 1.640916 1  515             Rx   d 8 00 00 00 00 00 00 00 00
 1.650311 1  215             Rx   d 8 03 00 00 00 08 01 1F 03
 1.650491 1  315             Rx   d 8 8E FE FF FF 66 01 00 00
 1.650746 1  415             Rx   d 8 00 00 00 00 00 00 00 00
 1.650996 1  515             Rx   d 8 00 00 00 00 00 00 00 00
 1.660237 1  215             Rx   d 8 03 00 00 00 08 01 1F 03
 1.660497 1  315             Rx   d 8 8C FE FF FF 6D 01 00 00
 1.660753 1  415             Rx   d 8 00 00 00 00 00 00 00 00
 1.660997 1  515             Rx   d 8 00 00 00 00 00 00 00 00
 1.670334 1  215             Rx   d 8 03 00 00 00 08 01 1F 03
 1.670681 1  315             Rx   d 8 8C FE FF FF 6D 01 00 00
 1.670975 1  415             Rx   d 8 00 00 00 00 00 00 00 00
 1.671560 1  515             Rx   d 8 00 00 00 00 00 00 00 00
 1.680204 1  215             Rx   d 8 03 00 00 00 08 01 1F 03
 1.680488 1  315             Rx   d 8 8B FE FF FF 74 01 00 00
 1.680793 1  415             Rx   d 8 00 00 00 00 00 00 00 00
 1.681030 1  515             Rx   d 8 00 00 00 00 00 00 00 00
 1.690311 1  215             Rx   d 8 03 00 00 00 08 01 1F 03
 1.690491 1  315             Rx   d 8 8B FE FF FF 74 01 00 00
 1.690741 1  415             Rx   d 8 00 00 00 00 00 00 00 00
 1.690992 1  515             Rx   d 8 00 00 00 00 00 00 00 00
 1.700240 1  215             Rx   d 8 03 00 00 00 08 01 1F 03
 1.700497 1  315             Rx   d 8 89 FE FF FF 78 01 00 00
 1.700770 1  415             Rx   d 8 00 00 00 00 00 00 00 00
 1.701023 1  515             Rx   d 8 00 00 00 00 00 00 00 00
 1.710561 1  215             Rx   d 8 03 00 00 00 08 01 1F 03
 1.710802 1  315             Rx   d 8 89 FE FF FF 78 01 00 00
 1.711093 1  415             Rx   d 8 00 00 00 00 00 00 00 00
 1.711349 1  515             Rx   d 8 00 00 00 00 00 00 00 00
 1.720237 1  215             Rx   d 8 03 00 00 00 08 01 1F 03
 1.720496 1  315             Rx   d 8 8B FE FF FF 79 01 00 00
 1.720719 1  415             Rx   d 8 00 00 00 00 00 00 00 00
 1.720949 1  515             Rx   d 8 00 00 00 00 00 00 00 00
 1.730322 1  215             Rx   d 8 03 00 00 00 08 01 1F 03
 1.730506 1  315             Rx   d 8 8B FE FF FF 79 01 00 00
 1.730773 1  415             Rx   d 8 00 00 00 00 00 00 00 00
 1.731027 1  515             Rx   d 8 00 00 00 00 00 00 00 00
 1.740232 1  215             Rx   d 8 03 00 00 00 08 01 1F 03
 1.740495 1  315             Rx   d 8 8E FE FF FF 77 01 00 00
 1.740795 1  415             Rx   d 8 00 00 00 00 00 00 00 00
 1.741046 1  515             Rx   d 8 00 00 00 00 00 00 00 00
 1.750343 1  215             Rx   d 8 03 00 00 00 08 01 1F 03
 1.750527 1  315             Rx   d 8 8E FE FF FF 77 01 00 00
 1.750771 1  415             Rx   d 8 00 00 00 00 00 00 00 00
 1.751043 1  515             Rx   d 8 00 00 00 00 00 00 00 00
 1.760255 1  215             Rx   d 8 03 00 00 00 08 01 1F 03
 1.760495 1  315             Rx   d 8 91 FE FF FF 72 01 00 00
 1.760764 1  415             Rx   d 8 00 00 00 00 00 00 00 00
 1.761019 1  515             Rx   d 8 00 00 00 00 00 00 00 00
 1.770320 1  215             Rx   d 8 03 00 00 00 08 01 1F 03
 1.770551 1  315             Rx   d 8 91 FE FF FF 72 01 00 00
 1.770795 1  415             Rx   d 8 00 00 00 00 00 00 00 00
 1.771046 1  515             Rx   d 8 00 00 00 00 00 00 00 00
 1.780257 1  215             Rx   d 8 03 00 00 00 08 01 1F 03
 1.780489 1  315             Rx   d 8 95 FE FF FF 70 01 00 00
 1.780790 1  415             Rx   d 8 00 00 00 00 00 00 00 00
 1.781045 1  515             Rx   d 8 00 00 00 00 00 00 00 00
 1.790564 1  215             Rx   d 8 03 00 00 00 08 01 1F 03
 1.790749 1  315             Rx   d 8 95 FE FF FF 70 01 00 00
 1.791025 1  415             Rx   d 8 00 00 00 00 00 00 00 00
 1.791277 1  515             Rx   d 8 00 00 00 00 00 00 00 00
 1.800214 1  215             Rx   d 8 03 00 00 00 08 01 1F 03
 1.800501 1  315             Rx   d 8 99 FE FF FF 6E 01 00 00
 1.800960 1  415             Rx   d 8 00 00 00 00 00 00 00 00
 1.800962 1  515             Rx   d 8 00 00 00 00 00 00 00 00
 1.810346 1  215             Rx   d 8 03 00 00 00 08 01 1F 03
 1.810535 1  315             Rx   d 8 99 FE FF FF 6E 01 00 00
 1.810786 1  415             Rx   d 8 00 00 00 00 00 00 00 00
 1.811029 1  515             Rx   d 8 00 00 00 00 00 00 00 00
 1.820254 1  215             Rx   d 8 03 00 00 00 08 01 1F 03
 1.820489 1  315             Rx   d 8 99 FE FF FF 6D 01 00 00
 1.820737 1  415             Rx   d 8 00 00 00 00 00 00 00 00
 1.821008 1  515             Rx   d 8 00 00 00 00 00 00 00 00
 1.830347 1  215             Rx   d 8 03 00 00 00 08 01 1F 03
 1.830520 1  315             Rx   d 8 99 FE FF FF 6D 01 00 00
 1.830803 1  415             Rx   d 8 00 00 00 00 00 00 00 00
 1.831051 1  515             Rx   d 8 00 00 00 00 00 00 00 00
 1.840260 1  215             Rx   d 8 03 00 00 00 08 01 1F 03
 1.840493 1  315             Rx   d 8 99 FE FF FF 6E 01 00 00
 1.840742 1  415             Rx   d 8 00 00 00 00 00 00 00 00
 1.841018 1  515             Rx   d 8 00 00 00 00 00 00 00 00
 1.850367 1  215             Rx   d 8 03 00 00 00 08 01 1F 03
 1.850546 1  315             Rx   d 8 99 FE FF FF 6E 01 00 00
 1.850797 1  415             Rx   d 8 00 00 00 00 00 00 00 00
 1.851047 1  515             Rx   d 8 00 00 00 00 00 00 00 00
 1.860254 1  215             Rx   d 8 03 00 00 00 08 01 1F 03
 1.860493 1  315             Rx   d 8 99 FE FF FF 71 01 00 00
 1.860710 1  415             Rx   d 8 00 00 00 00 00 00 00 00
 1.860934 1  515             Rx   d 8 00 00 00 00 00 00 00 00
 1.870560 1  215             Rx   d 8 03 00 00 00 08 01 1F 03
 1.870754 1  315             Rx   d 8 99 FE FF FF 71 01 00 00
 1.870995 1  415             Rx   d 8 00 00 00 00 00 00 00 00
 1.871240 1  515             Rx   d 8 00 00 00 00 00 00 00 00
 1.880282 1  215             Rx   d 8 03 00 00 00 08 01 1F 03
 1.880498 1  315             Rx   d 8 96 FE FF FF 70 01 00 00
 1.880715 1  415             Rx   d 8 00 00 00 00 00 00 00 00
 1.880966 1  515             Rx   d 8 00 00 00 00 00 00 00 00
 1.890340 1  215             Rx   d 8 03 00 00 00 08 01 1F 03
 1.890574 1  315             Rx   d 8 96 FE FF FF 70 01 00 00
 1.890794 1  415             Rx   d 8 00 00 00 00 00 00 00 00
 1.891047 1  515             Rx   d 8 00 00 00 00 00 00 00 00
 1.900280 1  215             Rx   d 8 03 00 00 00 08 01 1F 03
 1.900494 1  315             Rx   d 8 92 FE FF FF 70 01 00 00
 1.900739 1  415             Rx   d 8 00 00 00 00 00 00 00 00
 1.900985 1  515             Rx   d 8 00 00 00 00 00 00 00 00
 1.910394 1  215             Rx   d 8 03 00 00 00 08 01 1F 03
 1.910729 1  315             Rx   d 8 92 FE FF FF 70 01 00 00
 1.911024 1  415             Rx   d 8 00 00 00 00 00 00 00 00
 1.911580 1  515             Rx   d 8 00 00 00 00 00 00 00 00
 1.920252 1  215             Rx   d 8 03 00 00 00 08 01 1F 03
 1.920493 1  315             Rx   d 8 92 FE FF FF 70 01 00 00
 1.920731 1  415             Rx   d 8 00 00 00 00 00 00 00 00
 1.921166 1  515             Rx   d 8 00 00 00 00 00 00 00 00
 1.930359 1  215             Rx   d 8 03 00 00 00 08 01 1F 03
 1.930571 1  315             Rx   d 8 92 FE FF FF 70 01 00 00
 1.930815 1  415             Rx   d 8 00 00 00 00 00 00 00 00
 1.931064 1  515             Rx   d 8 00 00 00 00 00 00 00 00
 1.940286 1  215             Rx   d 8 03 00 00 00 08 01 1F 03
 1.940492 1  315             Rx   d 8 92 FE FF FF 6D 01 00 00
 1.940739 1  415             Rx   d 8 00 00 00 00 00 00 00 00
 1.940982 1  515             Rx   d 8 00 00 00 00 00 00 00 00
 1.950556 1  215             Rx   d 8 03 00 00 00 08 01 1F 03
 1.950796 1  315             Rx   d 8 92 FE FF FF 6D 01 00 00
 1.951043 1  415             Rx   d 8 00 00 00 00 00 00 00 00
 1.951290 1  515             Rx   d 8 00 00 00 00 00 00 00 00
 1.960281 1  215             Rx   d 8 03 00 00 00 08 01 1F 03
 1.960515 1  315             Rx   d 8 8C FE FF FF 69 01 00 00
 1.960736 1  415             Rx   d 8 00 00 00 00 00 00 00 00
 1.960987 1  515             Rx   d 8 00 00 00 00 00 00 00 00
 1.970364 1  215             Rx   d 8 03 00 00 00 08 01 1F 03
 1.970573 1  315             Rx   d 8 8C FE FF FF 69 01 00 00
 1.970821 1  415             Rx   d 8 00 00 00 00 00 00 00 00
 1.971071 1  515             Rx   d 8 00 00 00 00 00 00 00 00
 1.980313 1  215             Rx   d 8 03 00 00 00 08 01 1F 03
 1.980492 1  315             Rx   d 8 89 FE FF FF 6B 01 00 00
 1.980742 1  415             Rx   d 8 00 00 00 00 00 00 00 00
 1.980983 1  515             Rx   d 8 00 00 00 00 00 00 00 00
 1.990368 1  215             Rx   d 8 03 00 00 00 08 01 1F 03
 1.990568 1  315             Rx   d 8 89 FE FF FF 6B 01 00 00
 1.990819 1  415             Rx   d 8 00 00 00 00 00 00 00 00
 1.991072 1  515             Rx   d 8 00 00 00 00 00 00 00 00
 2.000308 1  215             Rx   d 8 03 00 00 00 08 01 1F 03
 2.000492 1  315             Rx   d 8 8B FE FF FF 6F 01 00 00
 2.000768 1  415             Rx   d 8 00 00 00 00 00 00 00 00
 2.001014 1  515             Rx   d 8 00 00 00 00 00 00 00 00
 2.010388 1  215             Rx   d 8 03 00 00 00 08 01 1F 03
 2.010570 1  315             Rx   d 8 8B FE FF FF 6F 01 00 00
 2.010844 1  415             Rx   d 8 00 00 00 00 00 00 00 00
 2.011092 1  515             Rx   d 8 00 00 00 00 00 00 00 00
 2.020271 1  215             Rx   d 8 03 00 00 00 08 01 1F 03
 2.020775 1  315             Rx   d 8 8C FE FF FF 70 01 00 00
 2.020775 1  415             Rx   d 8 00 00 00 00 00 00 00 00
 2.021270 1  515             Rx   d 8 00 00 00 00 00 00 00 00
 2.030578 1  215             Rx   d 8 03 00 00 00 08 01 1F 03
 2.030772 1  315             Rx   d 8 8C FE FF FF 70 01 00 00
 2.031016 1  415             Rx   d 8 00 00 00 00 00 00 00 00
 2.031271 1  515             Rx   d 8 00 00 00 00 00 00 00 00
 2.040306 1  215             Rx   d 8 03 00 00 00 08 01 1F 03
 2.040540 1  315             Rx   d 8 8A FE FF FF 74 01 00 00
 2.040780 1  415             Rx   d 8 00 00 00 00 00 00 00 00
 2.041010 1  515             Rx   d 8 00 00 00 00 00 00 00 00
 2.050393 1  215             Rx   d 8 03 00 00 00 08 01 1F 03
 2.050601 1  315             Rx   d 8 8A FE FF FF 74 01 00 00
 2.050851 1  415             Rx   d 8 00 00 00 00 00 00 00 00
 2.051100 1  515             Rx   d 8 00 00 00 00 00 00 00 00
 2.060310 1  215             Rx   d 8 03 00 00 00 08 01 1F 03
 2.060542 1  315             Rx   d 8 8B FE FF FF 78 01 00 00
 2.060789 1  415             Rx   d 8 00 00 00 00 00 00 00 00
 2.061014 1  515             Rx   d 8 00 00 00 00 00 00 00 00
 2.070394 1  215             Rx   d 8 03 00 00 00 08 01 1F 03
 2.070604 1  315             Rx   d 8 8B FE FF FF 78 01 00 00
 2.070847 1  415             Rx   d 8 00 00 00 00 00 00 00 00
 2.071067 1  515             Rx   d 8 00 00 00 00 00 00 00 00
 2.080305 1  215             Rx   d 8 03 00 00 00 08 01 1F 03
 2.080541 1  315             Rx   d 8 89 FE FF FF 78 01 00 00
 2.080764 1  415             Rx   d 8 00 00 00 00 00 00 00 00
 2.081010 1  515             Rx   d 8 00 00 00 00 00 00 00 00
 2.090391 1  215             Rx   d 8 03 00 00 00 08 01 1F 03
 2.090625 1  315             Rx   d 8 89 FE FF FF 78 01 00 00
 2.090846 1  415             Rx   d 8 00 00 00 00 00 00 00 00
 2.091093 1  515             Rx   d 8 00 00 00 00 00 00 00 00
 2.100332 1  215             Rx   d 8 03 00 00 00 08 01 1F 03
 2.100514 1  315             Rx   d 8 88 FE FF FF 75 01 00 00
 2.100765 1  415             Rx   d 8 00 00 00 00 00 00 00 00
 2.101010 1  515             Rx   d 8 00 00 00 00 00 00 00 00
 2.110582 1  215             Rx   d 8 03 00 00 00 08 01 1F 03
 2.110820 1  315             Rx   d 8 88 FE FF FF 75 01 00 00
 2.111066 1  415             Rx   d 8 00 00 00 00 00 00 00 00
 2.111289 1  515             Rx   d 8 00 00 00 00 00 00 00 00
 2.120289 1  215             Rx   d 8 03 00 00 00 08 01 1F 03
 2.120822 1  315             Rx   d 8 85 FE FF FF 71 01 00 00
 2.120823 1  415             Rx   d 8 00 00 00 00 00 00 00 00
 2.121259 1  515             Rx   d 8 00 00 00 00 00 00 00 00
 2.130413 1  215             Rx   d 8 03 00 00 00 08 01 1F 03
 2.130596 1  315             Rx   d 8 85 FE FF FF 71 01 00 00
 2.130848 1  415             Rx   d 8 00 00 00 00 00 00 00 00
 2.131094 1  515             Rx   d 8 00 00 00 00 00 00 00 00
 2.140332 1  215             Rx   d 8 03 00 00 00 08 01 1F 03
 2.140536 1  315             Rx   d 8 84 FE FF FF 6D 01 00 00
 2.140785 1  415             Rx   d 8 00 00 00 00 00 00 00 00
 2.141027 1  515             Rx   d 8 00 00 00 00 00 00 00 00
 2.150421 1  215             Rx   d 8 03 00 00 00 08 01 1F 03
 2.150651 1  315             Rx   d 8 84 FE FF FF 6D 01 00 00
 2.150896 1  415             Rx   d 8 00 00 00 00 00 00 00 00
 2.151122 1  515             Rx   d 8 00 00 00 00 00 00 00 00
 2.160337 1  215             Rx   d 8 03 00 00 00 08 01 1F 03
 2.160573 1  315             Rx   d 8 84 FE FF FF 6A 01 00 00
 2.160792 1  415             Rx   d 8 00 00 00 00 00 00 00 00
 2.161043 1  515             Rx   d 8 00 00 00 00 00 00 00 00
 2.170421 1  215             Rx   d 8 03 00 00 00 08 01 1F 03
 2.170657 1  315             Rx   d 8 84 FE FF FF 6A 01 00 00
 2.170869 1  415             Rx   d 8 00 00 00 00 00 00 00 00
 2.171120 1  515             Rx   d 8 00 00 00 00 00 00 00 00
 2.180354 1  215             Rx   d 8 03 00 00 00 08 01 1F 03
 2.180537 1  315             Rx   d 8 86 FE FF FF 6A 01 00 00
 2.180787 1  415             Rx   d 8 00 00 00 00 00 00 00 00
 2.181034 1  515             Rx   d 8 00 00 00 00 00 00 00 00
 2.190608 1  215             Rx   d 8 03 00 00 00 08 01 1F 03
 2.190824 1  315             Rx   d 8 86 FE FF FF 6A 01 00 00
 2.191071 1  415             Rx   d 8 00 00 00 00 00 00 00 00
 2.191319 1  515             Rx   d 8 00 00 00 00 00 00 00 00
 2.200291 1  215             Rx   d 8 03 00 00 00 08 01 1F 03
 2.200562 1  315             Rx   d 8 89 FE FF FF 6A 01 00 00
 2.200804 1  415             Rx   d 8 00 00 00 00 00 00 00 00
 2.201060 1  515             Rx   d 8 00 00 00 00 00 00 00 00
 2.210434 1  215             Rx   d 8 03 00 00 00 08 01 1F 03
 2.210660 1  315             Rx   d 8 89 FE FF FF 6A 01 00 00
 2.210910 1  415             Rx   d 8 00 00 00 00 00 00 00 00
 2.211177 1  515             Rx   d 8 00 00 00 00 00 00 00 00
 2.220354 1  215             Rx   d 8 03 00 00 00 08 01 1F 03
 2.220563 1  315             Rx   d 8 8A FE FF FF 69 01 00 00
 2.220813 1  415             Rx   d 8 00 00 00 00 00 00 00 00
 2.221055 1  515             Rx   d 8 00 00 00 00 00 00 00 00
 2.230442 1  215             Rx   d 8 03 00 00 00 08 01 1F 03
 2.230695 1  315             Rx   d 8 8A FE FF FF 69 01 00 00
 2.230989 1  415             Rx   d 8 00 00 00 00 00 00 00 00
 2.231240 1  515             Rx   d 8 00 00 00 00 00 00 00 00
 2.240364 1  215             Rx   d 8 03 00 00 00 08 01 1F 03
 2.240721 1  315             Rx   d 8 8B FE FF FF 68 01 00 00
 2.241077 1  415             Rx   d 8 00 00 00 00 00 00 00 00
 2.241301 1  515             Rx   d 8 00 00 00 00 00 00 00 00
 2.250437 1  215             Rx   d 8 03 00 00 00 08 01 1F 03
 2.250654 1  315             Rx   d 8 8B FE FF FF 68 01 00 00
 2.250907 1  415             Rx   d 8 00 00 00 00 00 00 00 00
 2.251158 1  515             Rx   d 8 00 00 00 00 00 00 00 00
 2.260375 1  215             Rx   d 8 03 00 00 00 08 01 1F 03
 2.260564 1  315             Rx   d 8 8D FE FF FF 6B 01 00 00
 2.260833 1  415             Rx   d 8 00 00 00 00 00 00 00 00
 2.261084 1  515             Rx   d 8 00 00 00 00 00 00 00 00
 2.270639 1  215             Rx   d 8 03 00 00 00 08 01 1F 03
 2.270824 1  315             Rx   d 8 8D FE FF FF 6B 01 00 00
 2.271102 1  415             Rx   d 8 00 00 00 00 00 00 00 00
 2.271346 1  515             Rx   d 8 00 00 00 00 00 00 00 00
 2.280383 1  215             Rx   d 8 03 00 00 00 08 01 1F 03
 2.280563 1  315             Rx   d 8 8D FE FF FF 6E 01 00 00
 2.280839 1  415             Rx   d 8 00 00 00 00 00 00 00 00
 2.281081 1  515             Rx   d 8 00 00 00 00 00 00 00 00
 2.290437 1  215             Rx   d 8 03 00 00 00 08 01 1F 03
 2.290684 1  315             Rx   d 8 8D FE FF FF 6E 01 00 00
 2.290932 1  415             Rx   d 8 00 00 00 00 00 00 00 00
 2.291178 1  515             Rx   d 8 00 00 00 00 00 00 00 00
 2.300380 1  215             Rx   d 8 03 00 00 00 08 01 1F 03
 2.300590 1  315             Rx   d 8 87 FE FF FF 72 01 00 00
 2.300839 1  415             Rx   d 8 00 00 00 00 00 00 00 00
 2.301090 1  515             Rx   d 8 00 00 00 00 00 00 00 00
 2.310462 1  215             Rx   d 8 03 00 00 00 08 01 1F 03
 2.310681 1  315             Rx   d 8 87 FE FF FF 72 01 00 00
 2.310930 1  415             Rx   d 8 00 00 00 00 00 00 00 00
 2.311181 1  515             Rx   d 8 00 00 00 00 00 00 00 00
 2.320381 1  215             Rx   d 8 03 00 00 00 08 01 1F 03
 2.320591 1  315             Rx   d 8 87 FE FF FF 77 01 00 00
 2.320839 1  415             Rx   d 8 00 00 00 00 00 00 00 00
 2.321092 1  515             Rx   d 8 00 00 00 00 00 00 00 00
 2.330463 1  215             Rx   d 8 03 00 00 00 08 01 1F 03
 2.330680 1  315             Rx   d 8 87 FE FF FF 77 01 00 00
 2.330930 1  415             Rx   d 8 00 00 00 00 00 00 00 00
 2.331154 1  515             Rx   d 8 00 00 00 00 00 00 00 00
 2.340379 1  215             Rx   d 8 03 00 00 00 08 01 1F 03
 2.340590 1  315             Rx   d 8 8E FE FF FF 79 01 00 00
 2.340837 1  415             Rx   d 8 00 00 00 00 00 00 00 00
 2.341089 1  515             Rx   d 8 00 00 00 00 00 00 00 00
 2.350661 1  215             Rx   d 8 03 00 00 00 08 01 1F 03
 2.350871 1  315             Rx   d 8 8E FE FF FF 79 01 00 00
 2.351121 1  415             Rx   d 8 00 00 00 00 00 00 00 00
 2.351366 1  515             Rx   d 8 00 00 00 00 00 00 00 00
 2.360337 1  215             Rx   d 8 03 00 00 00 08 01 1F 03
 2.360874 1  315             Rx   d 8 90 FE FF FF 75 01 00 00
 2.360875 1  415             Rx   d 8 00 00 00 00 00 00 00 00
 2.361316 1  515             Rx   d 8 00 00 00 00 00 00 00 00
 2.370461 1  215             Rx   d 8 03 00 00 00 08 01 1F 03
 2.370685 1  315             Rx   d 8 90 FE FF FF 75 01 00 00
 2.370933 1  415             Rx   d 8 00 00 00 00 00 00 00 00
 2.371154 1  515             Rx   d 8 00 00 00 00 00 00 00 00
 2.380398 1  215             Rx   d 8 03 00 00 00 08 01 1F 03
 2.380586 1  315             Rx   d 8 8F FE FF FF 73 01 00 00
 2.380829 1  415             Rx   d 8 00 00 00 00 00 00 00 00
 2.381124 1  515             Rx   d 8 00 00 00 00 00 00 00 00
 2.390558 1  215             Rx   d 8 03 00 00 00 08 01 1F 03
 2.390769 1  315             Rx   d 8 8F FE FF FF 73 01 00 00
 2.391068 1  415             Rx   d 8 00 00 00 00 00 00 00 00
 2.391291 1  515             Rx   d 8 00 00 00 00 00 00 00 00
 2.400406 1  215             Rx   d 8 03 00 00 00 08 01 1F 03
 2.400613 1  315             Rx   d 8 91 FE FF FF 73 01 00 00
 2.400861 1  415             Rx   d 8 00 00 00 00 00 00 00 00
 2.401125 1  515             Rx   d 8 00 00 00 00 00 00 00 00
 2.410553 1  215             Rx   d 8 03 00 00 00 08 01 1F 03
 2.410776 1  315             Rx   d 8 91 FE FF FF 73 01 00 00
 2.411067 1  415             Rx   d 8 00 00 00 00 00 00 00 00
 2.411291 1  515             Rx   d 8 00 00 00 00 00 00 00 00
 2.420406 1  215             Rx   d 8 03 00 00 00 08 01 1F 03
 2.420615 1  315             Rx   d 8 8E FE FF FF 70 01 00 00
 2.420863 1  415             Rx   d 8 00 00 00 00 00 00 00 00
 2.421114 1  515             Rx   d 8 00 00 00 00 00 00 00 00
 2.430675 1  215             Rx   d 8 03 00 00 00 08 01 1F 03
 2.430867 1  315             Rx   d 8 8E FE FF FF 70 01 00 00
 2.431115 1  415             Rx   d 8 00 00 00 00 00 00 00 00
 2.431364 1  515             Rx   d 8 00 00 00 00 00 00 00 00
 2.440440 1  215             Rx   d 8 03 00 00 00 08 01 1F 03
 2.440736 1  315             Rx   d 8 86 FE FF FF 70 01 00 00
 2.441032 1  415             Rx   d 8 00 00 00 00 00 00 00 00
 2.441282 1  515             Rx   d 8 00 00 00 00 00 00 00 00
 2.450547 1  215             Rx   d 8 03 00 00 00 08 01 1F 03
 2.450729 1  315             Rx   d 8 86 FE FF FF 70 01 00 00
 2.451035 1  415             Rx   d 8 00 00 00 00 00 00 00 00
 2.451280 1  515             Rx   d 8 00 00 00 00 00 00 00 00
 2.460437 1  215             Rx   d 8 03 00 00 00 08 01 1F 03
 2.460659 1  315             Rx   d 8 84 FE FF FF 72 01 00 00
 2.460904 1  415             Rx   d 8 00 00 00 00 00 00 00 00
 2.461181 1  515             Rx   d 8 00 00 00 00 00 00 00 00
 2.470548 1  215             Rx   d 8 03 00 00 00 08 01 1F 03
 2.470737 1  315             Rx   d 8 84 FE FF FF 72 01 00 00
 2.470988 1  415             Rx   d 8 00 00 00 00 00 00 00 00
 2.471237 1  515             Rx   d 8 00 00 00 00 00 00 00 00
 2.480419 1  215             Rx   d 8 03 00 00 00 08 01 1F 03
 2.480863 1  315             Rx   d 8 87 FE FF FF 74 01 00 00
 2.480864 1  415             Rx   d 8 00 00 00 00 00 00 00 00
 2.481341 1  515             Rx   d 8 00 00 00 00 00 00 00 00
 2.490549 1  215             Rx   d 8 03 00 00 00 08 01 1F 03
 2.490736 1  315             Rx   d 8 87 FE FF FF 74 01 00 00
 2.491038 1  415             Rx   d 8 00 00 00 00 00 00 00 00
 2.491306 1  515             Rx   d 8 00 00 00 00 00 00 00 00
 2.500427 1  215             Rx   d 8 03 00 00 00 08 01 1F 03
 2.500675 1  315             Rx   d 8 8A FE FF FF 74 01 00 00
 2.500966 1  415             Rx   d 8 00 00 00 00 00 00 00 00
 2.501207 1  515             Rx   d 8 00 00 00 00 00 00 00 00
 2.510686 1  215             Rx   d 8 03 00 00 00 08 01 1F 03
 2.510928 1  315             Rx   d 8 8A FE FF FF 74 01 00 00
 2.511198 1  415             Rx   d 8 00 00 00 00 00 00 00 00
 2.511487 1  515             Rx   d 8 00 00 00 00 00 00 00 00
 2.520429 1  215             Rx   d 8 03 00 00 00 08 01 1F 03
 2.520672 1  315             Rx   d 8 8E FE FF FF 71 01 00 00
 2.520899 1  415             Rx   d 8 00 00 00 00 00 00 00 00
 2.521160 1  515             Rx   d 8 00 00 00 00 00 00 00 00
 2.530549 1  215             Rx   d 8 03 00 00 00 08 01 1F 03
 2.530741 1  315             Rx   d 8 8E FE FF FF 71 01 00 00
 2.530993 1  415             Rx   d 8 00 00 00 00 00 00 00 00
 2.531241 1  515             Rx   d 8 00 00 00 00 00 00 00 00
 2.540425 1  215             Rx   d 8 03 00 00 00 08 01 1F 03
 2.540676 1  315             Rx   d 8 93 FE FF FF 6F 01 00 00
 2.540923 1  415             Rx   d 8 00 00 00 00 00 00 00 00
 2.541202 1  515             Rx   d 8 00 00 00 00 00 00 00 00
 2.550552 1  215             Rx   d 8 03 00 00 00 08 01 1F 03
 2.550712 1  315             Rx   d 8 93 FE FF FF 6F 01 00 00
 2.550984 1  415             Rx   d 8 00 00 00 00 00 00 00 00
 2.551234 1  515             Rx   d 8 00 00 00 00 00 00 00 00
 2.560457 1  215             Rx   d 8 03 00 00 00 08 01 1F 03
 2.560676 1  315             Rx   d 8 96 FE FF FF 6C 01 00 00
 2.560969 1  415             Rx   d 8 00 00 00 00 00 00 00 00
 2.561228 1  515             Rx   d 8 00 00 00 00 00 00 00 00
 2.570553 1  215             Rx   d 8 03 00 00 00 08 01 1F 03
 2.570737 1  315             Rx   d 8 96 FE FF FF 6C 01 00 00
 2.570987 1  415             Rx   d 8 00 00 00 00 00 00 00 00
 2.571237 1  515             Rx   d 8 00 00 00 00 00 00 00 00
 2.580423 1  215             Rx   d 8 03 00 00 00 08 01 1F 03
 2.580678 1  315             Rx   d 8 98 FE FF FF 6B 01 00 00
 2.580927 1  415             Rx   d 8 00 00 00 00 00 00 00 00
 2.581173 1  515             Rx   d 8 00 00 00 00 00 00 00 00
 2.590700 1  215             Rx   d 8 03 00 00 00 08 01 1F 03
 2.590920 1  315             Rx   d 8 98 FE FF FF 6B 01 00 00
 2.591165 1  415             Rx   d 8 00 00 00 00 00 00 00 00
 2.591483 1  515             Rx   d 8 00 00 00 00 00 00 00 00
 2.600413 1  215             Rx   d 8 03 00 00 00 08 01 1F 03
 2.601003 1  315             Rx   d 8 97 FE FF FF 69 01 00 00
 2.601004 1  415             Rx   d 8 00 00 00 00 00 00 00 00
 2.601370 1  515             Rx   d 8 00 00 00 00 00 00 00 00
 2.610555 1  215             Rx   d 8 03 00 00 00 08 01 1F 03
 2.610749 1  315             Rx   d 8 97 FE FF FF 69 01 00 00
 2.610995 1  415             Rx   d 8 00 00 00 00 00 00 00 00
 2.611245 1  515             Rx   d 8 00 00 00 00 00 00 00 00
 2.620450 1  215             Rx   d 8 03 00 00 00 08 01 1F 03
 2.620646 1  315             Rx   d 8 94 FE FF FF 68 01 00 00
 2.620910 1  415             Rx   d 8 00 00 00 00 00 00 00 00
 2.621180 1  515             Rx   d 8 00 00 00 00 00 00 00 00
 2.630550 1  215             Rx   d 8 03 00 00 00 08 01 1F 03
 2.630739 1  315             Rx   d 8 94 FE FF FF 68 01 00 00
 2.630990 1  415             Rx   d 8 00 00 00 00 00 00 00 00
 2.631240 1  515             Rx   d 8 00 00 00 00 00 00 00 00
 2.640455 1  215             Rx   d 8 03 00 00 00 08 01 1F 03
 2.640676 1  315             Rx   d 8 92 FE FF FF 6B 01 00 00
 2.640924 1  415             Rx   d 8 00 00 00 00 00 00 00 00
 2.641166 1  515             Rx   d 8 00 00 00 00 00 00 00 00
 2.650547 1  215             Rx   d 8 03 00 00 00 08 01 1F 03
 2.650764 1  315             Rx   d 8 92 FE FF FF 6B 01 00 00
 2.651012 1  415             Rx   d 8 00 00 00 00 00 00 00 00
 2.651259 1  515             Rx   d 8 00 00 00 00 00 00 00 00
 2.660541 1  215             Rx   d 8 03 00 00 00 08 01 1F 03
 2.660785 1  315             Rx   d 8 92 FE FF FF 70 01 00 00
 2.661081 1  415             Rx   d 8 00 00 00 00 00 00 00 00
 2.661306 1  515             Rx   d 8 00 00 00 00 00 00 00 00
 2.670722 1  215             Rx   d 8 03 00 00 00 08 01 1F 03
 2.670914 1  315             Rx   d 8 92 FE FF FF 70 01 00 00
 2.671163 1  415             Rx   d 8 00 00 00 00 00 00 00 00
 2.671472 1  515             Rx   d 8 00 00 00 00 00 00 00 00
 2.680547 1  215             Rx   d 8 03 00 00 00 08 01 1F 03
 2.680759 1  315             Rx   d 8 91 FE FF FF 73 01 00 00
 2.681068 1  415             Rx   d 8 00 00 00 00 00 00 00 00
 2.681315 1  515             Rx   d 8 00 00 00 00 00 00 00 00
 2.690544 1  215             Rx   d 8 03 00 00 00 08 01 1F 03
 2.690760 1  315             Rx   d 8 91 FE FF FF 73 01 00 00
 2.691010 1  415             Rx   d 8 00 00 00 00 00 00 00 00
 2.691259 1  515             Rx   d 8 00 00 00 00 00 00 00 00
 2.700623 1  215             Rx   d 8 03 00 00 00 08 01 1F 03
 2.700917 1  315             Rx   d 8 8F FE FF FF 76 01 00 00
 2.701165 1  415             Rx   d 8 00 00 00 00 00 00 00 00
 2.701651 1  515             Rx   d 8 00 00 00 00 00 00 00 00
 2.710546 1  215             Rx   d 8 03 00 00 00 08 01 1F 03
 2.710786 1  315             Rx   d 8 8F FE FF FF 76 01 00 00
 2.711034 1  415             Rx   d 8 00 00 00 00 00 00 00 00
 2.711285 1  515             Rx   d 8 00 00 00 00 00 00 00 00
 2.720542 1  215             Rx   d 8 03 00 00 00 08 01 1F 03
 2.720781 1  315             Rx   d 8 90 FE FF FF 77 01 00 00
 2.721056 1  415             Rx   d 8 00 00 00 00 00 00 00 00
 2.721307 1  515             Rx   d 8 00 00 00 00 00 00 00 00
 2.730550 1  215             Rx   d 8 03 00 00 00 08 01 1F 03
 2.730792 1  315             Rx   d 8 90 FE FF FF 77 01 00 00
 2.731031 1  415             Rx   d 8 00 00 00 00 00 00 00 00
 2.731256 1  515             Rx   d 8 00 00 00 00 00 00 00 00
 2.740549 1  215             Rx   d 8 03 00 00 00 08 01 1F 03
 2.740708 1  315             Rx   d 8 93 FE FF FF 77 01 00 00
 2.740933 1  415             Rx   d 8 00 00 00 00 00 00 00 00
 2.741205 1  515             Rx   d 8 00 00 00 00 00 00 00 00
 2.750782 1  215             Rx   d 8 03 00 00 00 08 01 1F 03
 2.750970 1  315             Rx   d 8 93 FE FF FF 77 01 00 00
 2.751220 1  415             Rx   d 8 00 00 00 00 00 00 00 00
 2.751480 1  515             Rx   d 8 00 00 00 00 00 00 00 00
 2.760541 1  215             Rx   d 8 03 00 00 00 08 01 1F 03
 2.760724 1  315             Rx   d 8 91 FE FF FF 76 01 00 00
 2.760977 1  415             Rx   d 8 00 00 00 00 00 00 00 00
 2.761209 1  515             Rx   d 8 00 00 00 00 00 00 00 00
 2.770576 1  215             Rx   d 8 03 00 00 00 08 01 1F 03
 2.770761 1  315             Rx   d 8 91 FE FF FF 76 01 00 00
 2.771010 1  415             Rx   d 8 00 00 00 00 00 00 00 00
 2.771261 1  515             Rx   d 8 00 00 00 00 00 00 00 00
 2.780539 1  215             Rx   d 8 03 00 00 00 08 01 1F 03
 2.780756 1  315             Rx   d 8 8B FE FF FF 77 01 00 00
 2.781050 1  415             Rx   d 8 00 00 00 00 00 00 00 00
 2.781312 1  515             Rx   d 8 00 00 00 00 00 00 00 00
 2.790570 1  215             Rx   d 8 03 00 00 00 08 01 1F 03
 2.790791 1  315             Rx   d 8 8B FE FF FF 77 01 00 00
 2.791034 1  415             Rx   d 8 00 00 00 00 00 00 00 00
 2.791255 1  515             Rx   d 8 00 00 00 00 00 00 00 00
 2.800473 1  215             Rx   d 8 03 00 00 00 08 01 1F 03
 2.800707 1  315             Rx   d 8 89 FE FF FF 7C 01 00 00
 2.800928 1  415             Rx   d 8 00 00 00 00 00 00 00 00
 2.801164 1  515             Rx   d 8 00 00 00 00 00 00 00 00
 2.810591 1  215             Rx   d 8 03 00 00 00 08 01 1F 03
 2.811018 1  315             Rx   d 8 89 FE FF FF 7C 01 00 00
 2.811565 1  415             Rx   d 8 00 00 00 00 00 00 00 00
 2.811782 1  515             Rx   d 8 00 00 00 00 00 00 00 00
 2.820488 1  215             Rx   d 8 03 00 00 00 08 01 1F 03
 2.820688 1  315             Rx   d 8 89 FE FF FF 7E 01 00 00
 2.820920 1  415             Rx   d 8 00 00 00 00 00 00 00 00
 2.821356 1  515             Rx   d 8 00 00 00 00 00 00 00 00
 2.830777 1  215             Rx   d 8 03 00 00 00 08 01 1F 03
 2.830960 1  315             Rx   d 8 89 FE FF FF 7E 01 00 00
 2.831210 1  415             Rx   d 8 00 00 00 00 00 00 00 00
 2.831478 1  515             Rx   d 8 00 00 00 00 00 00 00 00
 2.840538 1  215             Rx   d 8 03 00 00 00 08 01 1F 03
 2.840729 1  315             Rx   d 8 85 FE FF FF 7F 01 00 00
 2.840976 1  415             Rx   d 8 00 00 00 00 00 00 00 00
 2.841206 1  515             Rx   d 8 00 00 00 00 00 00 00 00
 2.850600 1  215             Rx   d 8 03 00 00 00 08 01 1F 03
 2.850814 1  315             Rx   d 8 85 FE FF FF 7F 01 00 00
 2.851065 1  415             Rx   d 8 00 00 00 00 00 00 00 00
 2.851314 1  515             Rx   d 8 00 00 00 00 00 00 00 00
 2.860538 1  215             Rx   d 8 03 00 00 00 08 01 1F 03
 2.860729 1  315             Rx   d 8 84 FE FF FF 7D 01 00 00
 2.860974 1  415             Rx   d 8 00 00 00 00 00 00 00 00
 2.861225 1  515             Rx   d 8 00 00 00 00 00 00 00 00
 2.870570 1  215             Rx   d 8 03 00 00 00 08 01 1F 03
 2.870812 1  315             Rx   d 8 84 FE FF FF 7D 01 00 00
 2.871087 1  415             Rx   d 8 00 00 00 00 00 00 00 00
 2.871333 1  515             Rx   d 8 00 00 00 00 00 00 00 00
 2.880540 1  215             Rx   d 8 03 00 00 00 08 01 1F 03
 2.880722 1  315             Rx   d 8 84 FE FF FF 79 01 00 00
 2.880962 1  415             Rx   d 8 00 00 00 00 00 00 00 00
 2.881224 1  515             Rx   d 8 00 00 00 00 00 00 00 00
 2.890593 1  215             Rx   d 8 03 00 00 00 08 01 1F 03
 2.890785 1  315             Rx   d 8 84 FE FF FF 79 01 00 00
 2.891036 1  415             Rx   d 8 00 00 00 00 00 00 00 00
 2.891286 1  515             Rx   d 8 00 00 00 00 00 00 00 00
 2.900537 1  215             Rx   d 8 03 00 00 00 08 01 1F 03
 2.900727 1  315             Rx   d 8 84 FE FF FF 76 01 00 00
 2.900971 1  415             Rx   d 8 00 00 00 00 00 00 00 00
 2.901228 1  515             Rx   d 8 00 00 00 00 00 00 00 00
 2.910776 1  215             Rx   d 8 03 00 00 00 08 01 1F 03
 2.911018 1  315             Rx   d 8 84 FE FF FF 76 01 00 00
 2.911267 1  415             Rx   d 8 00 00 00 00 00 00 00 00
 2.911529 1  515             Rx   d 8 00 00 00 00 00 00 00 00
 2.920721 1  215             Rx   d 8 03 00 00 00 08 01 1F 03
 2.920962 1  315             Rx   d 8 80 FE FF FF 76 01 00 00
 2.921184 1  415             Rx   d 8 00 00 00 00 00 00 00 00
 2.921478 1  515             Rx   d 8 00 00 00 00 00 00 00 00
 2.930497 1  215             Rx   d 8 03 00 00 00 08 01 1F 03
 2.931005 1  315             Rx   d 8 80 FE FF FF 76 01 00 00
 2.931303 1  415             Rx   d 8 00 00 00 00 00 00 00 00
 2.931586 1  515             Rx   d 8 00 00 00 00 00 00 00 00
 2.940542 1  215             Rx   d 8 03 00 00 00 08 01 1F 03
 2.940729 1  315             Rx   d 8 7D FE FF FF 78 01 00 00
 2.940979 1  415             Rx   d 8 00 00 00 00 00 00 00 00
 2.941228 1  515             Rx   d 8 00 00 00 00 00 00 00 00
 2.950619 1  215             Rx   d 8 03 00 00 00 08 01 1F 03
 2.950828 1  315             Rx   d 8 7D FE FF FF 78 01 00 00
 2.951077 1  415             Rx   d 8 00 00 00 00 00 00 00 00
 2.951327 1  515             Rx   d 8 00 00 00 00 00 00 00 00
 2.960540 1  215             Rx   d 8 03 00 00 00 08 01 1F 03
 2.960753 1  315             Rx   d 8 7A FE FF FF 7D 01 00 00
 2.961003 1  415             Rx   d 8 00 00 00 00 00 00 00 00
 2.961253 1  515             Rx   d 8 00 00 00 00 00 00 00 00
 2.970622 1  215             Rx   d 8 03 00 00 00 08 01 1F 03
 2.970813 1  315             Rx   d 8 7A FE FF FF 7D 01 00 00
 2.971058 1  415             Rx   d 8 00 00 00 00 00 00 00 00
 2.971330 1  515             Rx   d 8 00 00 00 00 00 00 00 00
 2.980542 1  215             Rx   d 8 03 00 00 00 08 01 1F 03
 2.980757 1  315             Rx   d 8 7C FE FF FF 83 01 00 00
 2.980984 1  415             Rx   d 8 00 00 00 00 00 00 00 00
 2.981253 1  515             Rx   d 8 00 00 00 00 00 00 00 00
 2.990800 1  215             Rx   d 8 03 00 00 00 08 01 1F 03
 2.991008 1  315             Rx   d 8 7C FE FF FF 83 01 00 00
 2.991274 1  415             Rx   d 8 00 00 00 00 00 00 00 00
 2.991498 1  515             Rx   d 8 00 00 00 00 00 00 00 00
 3.000540 1  215             Rx   d 8 03 00 00 00 08 01 1F 03
 3.000748 1  315             Rx   d 8 7C FE FF FF 84 01 00 00
 3.000997 1  415             Rx   d 8 00 00 00 00 00 00 00 00
 3.001243 1  515             Rx   d 8 00 00 00 00 00 00 00 00
 3.010618 1  215             Rx   d 8 03 00 00 00 08 01 1F 03
 3.010837 1  315             Rx   d 8 7E FE FF FF 84 01 00 00
 3.011082 1  415             Rx   d 8 00 00 00 00 00 00 00 00
 3.011306 1  515             Rx   d 8 00 00 00 00 00 00 00 00
 3.020534 1  215             Rx   d 8 03 00 00 00 08 01 1F 03
 3.020776 1  315             Rx   d 8 80 FE FF FF 80 01 00 00
 3.021020 1  415             Rx   d 8 00 00 00 00 00 00 00 00
 3.021282 1  515             Rx   d 8 00 00 00 00 00 00 00 00
 3.030620 1  215             Rx   d 8 03 00 00 00 08 01 1F 03
 3.030837 1  315             Rx   d 8 80 FE FF FF 80 01 00 00
 3.031084 1  415             Rx   d 8 00 00 00 00 00 00 00 00
 3.031309 1  515             Rx   d 8 00 00 00 00 00 00 00 00
 3.040561 1  215             Rx   d 8 03 00 00 00 08 01 1F 03
 3.040961 1  315             Rx   d 8 80 FE FF FF 7A 01 00 00
 3.041286 1  415             Rx   d 8 00 00 00 00 00 00 00 00
 3.041523 1  515             Rx   d 8 00 00 00 00 00 00 00 00
 3.050649 1  215             Rx   d 8 03 00 00 00 08 01 1F 03
 3.050833 1  315             Rx   d 8 80 FE FF FF 7A 01 00 00
 3.051085 1  415             Rx   d 8 00 00 00 00 00 00 00 00
 3.051329 1  515             Rx   d 8 00 00 00 00 00 00 00 00
 3.060560 1  215             Rx   d 8 03 00 00 00 08 01 1F 03
 3.060749 1  315             Rx   d 8 82 FE FF FF 76 01 00 00
 3.060993 1  415             Rx   d 8 00 00 00 00 00 00 00 00
 3.061266 1  515             Rx   d 8 00 00 00 00 00 00 00 00
 3.070859 1  215             Rx   d 8 03 00 00 00 08 01 1F 03
 3.071080 1  315             Rx   d 8 82 FE FF FF 76 01 00 00
 3.071376 1  415             Rx   d 8 00 00 00 00 00 00 00 00
 3.071673 1  515             Rx   d 8 00 00 00 00 00 00 00 00
 3.080559 1  215             Rx   d 8 03 00 00 00 08 01 1F 03
 3.080749 1  315             Rx   d 8 7E FE FF FF 71 01 00 00
 3.080999 1  415             Rx   d 8 00 00 00 00 00 00 00 00
 3.081263 1  515             Rx   d 8 00 00 00 00 00 00 00 00
 3.090654 1  215             Rx   d 8 03 00 00 00 08 01 1F 03
 3.090845 1  315             Rx   d 8 7E FE FF FF 71 01 00 00
 3.091098 1  415             Rx   d 8 00 00 00 00 00 00 00 00
 3.091341 1  515             Rx   d 8 00 00 00 00 00 00 00 00
 3.100560 1  215             Rx   d 8 03 00 00 00 08 01 1F 03
 3.100804 1  315             Rx   d 8 7A FE FF FF 71 01 00 00
 3.101111 1  415             Rx   d 8 00 00 00 00 00 00 00 00
 3.101351 1  515             Rx   d 8 00 00 00 00 00 00 00 00
 3.110648 1  215             Rx   d 8 03 00 00 00 08 01 1F 03
 3.110839 1  315             Rx   d 8 7A FE FF FF 71 01 00 00
 3.111086 1  415             Rx   d 8 00 00 00 00 00 00 00 00
 3.111330 1  515             Rx   d 8 00 00 00 00 00 00 00 00
 3.120564 1  215             Rx   d 8 03 00 00 00 08 01 1F 03
 3.120803 1  315             Rx   d 8 7F FE FF FF 73 01 00 00
 3.121052 1  415             Rx   d 8 00 00 00 00 00 00 00 00
 3.121310 1  515             Rx   d 8 00 00 00 00 00 00 00 00
 3.130647 1  215             Rx   d 8 03 00 00 00 08 01 1F 03
 3.130855 1  315             Rx   d 8 7F FE FF FF 73 01 00 00
 3.131106 1  415             Rx   d 8 00 00 00 00 00 00 00 00
 3.131353 1  515             Rx   d 8 00 00 00 00 00 00 00 00
 3.140558 1  215             Rx   d 8 03 00 00 00 08 01 1F 03
 3.140802 1  315             Rx   d 8 87 FE FF FF 75 01 00 00
 3.141068 1  415             Rx   d 8 00 00 00 00 00 00 00 00
 3.141330 1  515             Rx   d 8 00 00 00 00 00 00 00 00
 3.150850 1  215             Rx   d 8 03 00 00 00 08 01 1F 03
 3.151062 1  315             Rx   d 8 87 FE FF FF 75 01 00 00
 3.151311 1  415             Rx   d 8 00 00 00 00 00 00 00 00
 3.151529 1  515             Rx   d 8 00 00 00 00 00 00 00 00
 3.160533 1  215             Rx   d 8 03 00 00 00 08 01 1F 03
 3.160984 1  315             Rx   d 8 8E FE FF FF 73 01 00 00
 3.161316 1  415             Rx   d 8 00 00 00 00 00 00 00 00
 3.161635 1  515             Rx   d 8 00 00 00 00 00 00 00 00
 3.170648 1  215             Rx   d 8 03 00 00 00 08 01 1F 03
 3.170865 1  315             Rx   d 8 8E FE FF FF 73 01 00 00
 3.171110 1  415             Rx   d 8 00 00 00 00 00 00 00 00
 3.171359 1  515             Rx   d 8 00 00 00 00 00 00 00 00
 3.180580 1  215             Rx   d 8 03 00 00 00 08 01 1F 03
 3.180774 1  315             Rx   d 8 94 FE FF FF 71 01 00 00
 3.181022 1  415             Rx   d 8 00 00 00 00 00 00 00 00
 3.181287 1  515             Rx   d 8 00 00 00 00 00 00 00 00
 3.190684 1  215             Rx   d 8 03 00 00 00 08 01 1F 03
 3.190864 1  315             Rx   d 8 94 FE FF FF 71 01 00 00
 3.191111 1  415             Rx   d 8 00 00 00 00 00 00 00 00
 3.191359 1  515             Rx   d 8 00 00 00 00 00 00 00 00
 3.200585 1  215             Rx   d 8 03 00 00 00 08 01 1F 03
 3.200776 1  315             Rx   d 8 9A FE FF FF 71 01 00 00
 3.201024 1  415             Rx   d 8 00 00 00 00 00 00 00 00
 3.201271 1  515             Rx   d 8 00 00 00 00 00 00 00 00
 3.210664 1  215             Rx   d 8 03 00 00 00 08 01 1F 03
 3.210856 1  315             Rx   d 8 9A FE FF FF 71 01 00 00
 3.211118 1  415             Rx   d 8 00 00 00 00 00 00 00 00
 3.211373 1  515             Rx   d 8 00 00 00 00 00 00 00 00
 3.220593 1  215             Rx   d 8 03 00 00 00 08 01 1F 03
 3.220781 1  315             Rx   d 8 9A FE FF FF 71 01 00 00
 3.221031 1  415             Rx   d 8 00 00 00 00 00 00 00 00
 3.221303 1  515             Rx   d 8 00 00 00 00 00 00 00 00
 3.230844 1  215             Rx   d 8 03 00 00 00 08 01 1F 03
 3.231062 1  315             Rx   d 8 9A FE FF FF 71 01 00 00
 3.231310 1  415             Rx   d 8 00 00 00 00 00 00 00 00
 3.231542 1  515             Rx   d 8 00 00 00 00 00 00 00 00
 3.240621 1  215             Rx   d 8 03 00 00 00 08 01 1F 03
 3.240812 1  315             Rx   d 8 94 FE FF FF 74 01 00 00
 3.241058 1  415             Rx   d 8 00 00 00 00 00 00 00 00
 3.241307 1  515             Rx   d 8 00 00 00 00 00 00 00 00
 3.250720 1  215             Rx   d 8 03 00 00 00 08 01 1F 03
 3.250939 1  315             Rx   d 8 94 FE FF FF 74 01 00 00
 3.251180 1  415             Rx   d 8 00 00 00 00 00 00 00 00
 3.251470 1  515             Rx   d 8 00 00 00 00 00 00 00 00
 3.260842 1  215             Rx   d 8 03 00 00 00 08 01 1F 03
 3.260843 1  315             Rx   d 8 8F FE FF FF 7A 01 00 00
 3.261276 1  415             Rx   d 8 00 00 00 00 00 00 00 00
 3.261756 1  515             Rx   d 8 00 00 00 00 00 00 00 00
 3.270670 1  215             Rx   d 8 03 00 00 00 08 01 1F 03
 3.270877 1  315             Rx   d 8 8F FE FF FF 7A 01 00 00
 3.271127 1  415             Rx   d 8 00 00 00 00 00 00 00 00
 3.271350 1  515             Rx   d 8 00 00 00 00 00 00 00 00
 3.280606 1  215             Rx   d 8 03 00 00 00 08 01 1F 03
 3.280798 1  315             Rx   d 8 8B FE FF FF 7F 01 00 00
 3.281067 1  415             Rx   d 8 00 00 00 00 00 00 00 00
 3.281333 1  515             Rx   d 8 00 00 00 00 00 00 00 00
 3.290707 1  215             Rx   d 8 03 00 00 00 08 01 1F 03
 3.290895 1  315             Rx   d 8 8B FE FF FF 7F 01 00 00
 3.291146 1  415             Rx   d 8 00 00 00 00 00 00 00 00
 3.291391 1  515             Rx   d 8 00 00 00 00 00 00 00 00
 3.300610 1  215             Rx   d 8 03 00 00 00 08 01 1F 03
 3.300800 1  315             Rx   d 8 8A FE FF FF 81 01 00 00
 3.301044 1  415             Rx   d 8 00 00 00 00 00 00 00 00
 3.301307 1  515             Rx   d 8 00 00 00 00 00 00 00 00
 3.310881 1  215             Rx   d 8 03 00 00 00 08 01 1F 03
 3.311091 1  315             Rx   d 8 8A FE FF FF 81 01 00 00
 3.311337 1  415             Rx   d 8 00 00 00 00 00 00 00 00
 3.311576 1  515             Rx   d 8 00 00 00 00 00 00 00 00
 3.320632 1  215             Rx   d 8 03 00 00 00 08 01 1F 03
 3.320825 1  315             Rx   d 8 8C FE FF FF 80 01 00 00
 3.321065 1  415             Rx   d 8 00 00 00 00 00 00 00 00
 3.321325 1  515             Rx   d 8 00 00 00 00 00 00 00 00
 3.330697 1  215             Rx   d 8 03 00 00 00 08 01 1F 03
 3.330909 1  315             Rx   d 8 8C FE FF FF 80 01 00 00
 3.331132 1  415             Rx   d 8 00 00 00 00 00 00 00 00
 3.331387 1  515             Rx   d 8 00 00 00 00 00 00 00 00
 3.340608 1  215             Rx   d 8 03 00 00 00 08 01 1F 03
 3.340826 1  315             Rx   d 8 8F FE FF FF 79 01 00 00
 3.341069 1  415             Rx   d 8 00 00 00 00 00 00 00 00
 3.341332 1  515             Rx   d 8 00 00 00 00 00 00 00 00
 3.350714 1  215             Rx   d 8 03 00 00 00 08 01 1F 03
 3.350908 1  315             Rx   d 8 8F FE FF FF 79 01 00 00
 3.351150 1  415             Rx   d 8 00 00 00 00 00 00 00 00
 3.351471 1  515             Rx   d 8 00 00 00 00 00 00 00 00
 3.360634 1  215             Rx   d 8 03 00 00 00 08 01 1F 03
 3.360800 1  315             Rx   d 8 92 FE FF FF 71 01 00 00
 3.361098 1  415             Rx   d 8 00 00 00 00 00 00 00 00
 3.361351 1  515             Rx   d 8 00 00 00 00 00 00 00 00
 3.370935 1  215             Rx   d 8 03 00 00 00 08 01 1F 03
 3.370937 1  315             Rx   d 8 92 FE FF FF 71 01 00 00
 3.371390 1  415             Rx   d 8 00 00 00 00 00 00 00 00
 3.371873 1  515             Rx   d 8 00 00 00 00 00 00 00 00
 3.380647 1  215             Rx   d 8 03 00 00 00 08 01 1F 03
 3.380838 1  315             Rx   d 8 97 FE FF FF 6D 01 00 00
 3.381083 1  415             Rx   d 8 00 00 00 00 00 00 00 00
 3.381324 1  515             Rx   d 8 00 00 00 00 00 00 00 00
 3.390897 1  215             Rx   d 8 03 00 00 00 08 01 1F 03
 3.391111 1  315             Rx   d 8 97 FE FF FF 6D 01 00 00
 3.391359 1  415             Rx   d 8 00 00 00 00 00 00 00 00
 3.391660 1  515             Rx   d 8 00 00 00 00 00 00 00 00
 3.400580 1  215             Rx   d 8 03 00 00 00 08 01 1F 03
 3.400828 1  315             Rx   d 8 9A FE FF FF 6A 01 00 00
 3.401065 1  415             Rx   d 8 00 00 00 00 00 00 00 00
 3.401323 1  515             Rx   d 8 00 00 00 00 00 00 00 00
 3.410715 1  215             Rx   d 8 03 00 00 00 08 01 1F 03
 3.410904 1  315             Rx   d 8 9A FE FF FF 6A 01 00 00
 3.411154 1  415             Rx   d 8 00 00 00 00 00 00 00 00
 3.411468 1  515             Rx   d 8 00 00 00 00 00 00 00 00
 3.420635 1  215             Rx   d 8 03 00 00 00 08 01 1F 03
 3.420804 1  315             Rx   d 8 94 FE FF FF 68 01 00 00
 3.421064 1  415             Rx   d 8 00 00 00 00 00 00 00 00
 3.421354 1  515             Rx   d 8 00 00 00 00 00 00 00 00
 3.430716 1  215             Rx   d 8 03 00 00 00 08 01 1F 03
 3.430908 1  315             Rx   d 8 94 FE FF FF 68 01 00 00
 3.431153 1  415             Rx   d 8 00 00 00 00 00 00 00 00
 3.431465 1  515             Rx   d 8 00 00 00 00 00 00 00 00
 3.440634 1  215             Rx   d 8 03 00 00 00 08 01 1F 03
 3.440874 1  315             Rx   d 8 8E FE FF FF 6F 01 00 00
 3.441140 1  415             Rx   d 8 00 00 00 00 00 00 00 00
 3.441385 1  515             Rx   d 8 00 00 00 00 00 00 00 00
 3.450743 1  215             Rx   d 8 03 00 00 00 08 01 1F 03
 3.450932 1  315             Rx   d 8 8E FE FF FF 6F 01 00 00
 3.451180 1  415             Rx   d 8 00 00 00 00 00 00 00 00
 3.451470 1  515             Rx   d 8 00 00 00 00 00 00 00 00
 3.460633 1  215             Rx   d 8 03 00 00 00 08 01 1F 03
 3.460885 1  315             Rx   d 8 8C FE FF FF 75 01 00 00
 3.461170 1  415             Rx   d 8 00 00 00 00 00 00 00 00
 3.461466 1  515             Rx   d 8 00 00 00 00 00 00 00 00
 3.470895 1  215             Rx   d 8 03 00 00 00 08 01 1F 03
 3.471141 1  315             Rx   d 8 8C FE FF FF 75 01 00 00
 3.471385 1  415             Rx   d 8 00 00 00 00 00 00 00 00
 3.471656 1  515             Rx   d 8 00 00 00 00 00 00 00 00
 3.480600 1  215             Rx   d 8 03 00 00 00 08 01 1F 03
 3.480942 1  315             Rx   d 8 88 FE FF FF 78 01 00 00
 3.481378 1  415             Rx   d 8 00 00 00 00 00 00 00 00
 3.481379 1  515             Rx   d 8 00 00 00 00 00 00 00 00
 3.490713 1  215             Rx   d 8 03 00 00 00 08 01 1F 03
 3.490929 1  315             Rx   d 8 88 FE FF FF 78 01 00 00
 3.491178 1  415             Rx   d 8 00 00 00 00 00 00 00 00
 3.491464 1  515             Rx   d 8 00 00 00 00 00 00 00 00
 3.500652 1  215             Rx   d 8 03 00 00 00 08 01 1F 03
 3.500841 1  315             Rx   d 8 84 FE FF FF 78 01 00 00
 3.501141 1  415             Rx   d 8 00 00 00 00 00 00 00 00
 3.501354 1  515             Rx   d 8 00 00 00 00 00 00 00 00
 3.510750 1  215             Rx   d 8 03 00 00 00 08 01 1F 03
 3.510942 1  315             Rx   d 8 84 FE FF FF 78 01 00 00
 3.511193 1  415             Rx   d 8 00 00 00 00 00 00 00 00
 3.511475 1  515             Rx   d 8 00 00 00 00 00 00 00 00
 3.520659 1  215             Rx   d 8 03 00 00 00 08 01 1F 03
 3.520847 1  315             Rx   d 8 88 FE FF FF 76 01 00 00
 3.521144 1  415             Rx   d 8 00 00 00 00 00 00 00 00
 3.521386 1  515             Rx   d 8 00 00 00 00 00 00 00 00
 3.530744 1  215             Rx   d 8 03 00 00 00 08 01 1F 03
 3.530932 1  315             Rx   d 8 88 FE FF FF 76 01 00 00
 3.531189 1  415             Rx   d 8 00 00 00 00 00 00 00 00
 3.531471 1  515             Rx   d 8 00 00 00 00 00 00 00 00
 3.540685 1  215             Rx   d 8 03 00 00 00 08 01 1F 03
 3.540872 1  315             Rx   d 8 8A FE FF FF 6D 01 00 00
 3.541145 1  415             Rx   d 8 00 00 00 00 00 00 00 00
 3.541386 1  515             Rx   d 8 00 00 00 00 00 00 00 00
 3.550956 1  215             Rx   d 8 03 00 00 00 08 01 1F 03
 3.551146 1  315             Rx   d 8 8A FE FF FF 6D 01 00 00
 3.551392 1  415             Rx   d 8 00 00 00 00 00 00 00 00
 3.551664 1  515             Rx   d 8 00 00 00 00 00 00 00 00
 3.560681 1  215             Rx   d 8 03 00 00 00 08 01 1F 03
 3.560872 1  315             Rx   d 8 87 FE FF FF 66 01 00 00
 3.561137 1  415             Rx   d 8 00 00 00 00 00 00 00 00
 3.561382 1  515             Rx   d 8 00 00 00 00 00 00 00 00
 3.570744 1  215             Rx   d 8 03 00 00 00 08 01 1F 03
 3.570957 1  315             Rx   d 8 87 FE FF FF 66 01 00 00
 3.571205 1  415             Rx   d 8 00 00 00 00 00 00 00 00
 3.571463 1  515             Rx   d 8 00 00 00 00 00 00 00 00
 3.580681 1  215             Rx   d 8 03 00 00 00 08 01 1F 03
 3.580872 1  315             Rx   d 8 84 FE FF FF 66 01 00 00
 3.581137 1  415             Rx   d 8 00 00 00 00 00 00 00 00
 3.581470 1  515             Rx   d 8 00 00 00 00 00 00 00 00
 3.590803 1  215             Rx   d 8 03 00 00 00 08 01 1F 03
 3.591153 1  315             Rx   d 8 84 FE FF FF 66 01 00 00
 3.591495 1  415             Rx   d 8 00 00 00 00 00 00 00 00
 3.591770 1  515             Rx   d 8 00 00 00 00 00 00 00 00
 3.600636 1  215             Rx   d 8 03 00 00 00 08 01 1F 03
 3.600900 1  315             Rx   d 8 83 FE FF FF 6B 01 00 00
 3.601153 1  415             Rx   d 8 00 00 00 00 00 00 00 00
 3.601459 1  515             Rx   d 8 00 00 00 00 00 00 00 00
 3.610764 1  215             Rx   d 8 03 00 00 00 08 01 1F 03
 3.610977 1  315             Rx   d 8 83 FE FF FF 6B 01 00 00
 3.611225 1  415             Rx   d 8 00 00 00 00 00 00 00 00
 3.611490 1  515             Rx   d 8 00 00 00 00 00 00 00 00
 3.620686 1  215             Rx   d 8 03 00 00 00 08 01 1F 03
 3.620899 1  315             Rx   d 8 82 FE FF FF 70 01 00 00
 3.621164 1  415             Rx   d 8 00 00 00 00 00 00 00 00
 3.621477 1  515             Rx   d 8 00 00 00 00 00 00 00 00
 3.630962 1  215             Rx   d 8 03 00 00 00 08 01 1F 03
 3.631148 1  315             Rx   d 8 82 FE FF FF 70 01 00 00
 3.631479 1  415             Rx   d 8 00 00 00 00 00 00 00 00
 3.631723 1  515             Rx   d 8 00 00 00 00 00 00 00 00
 3.640684 1  215             Rx   d 8 03 00 00 00 08 01 1F 03
 3.640922 1  315             Rx   d 8 82 FE FF FF 77 01 00 00
 3.641177 1  415             Rx   d 8 00 00 00 00 00 00 00 00
 3.641466 1  515             Rx   d 8 00 00 00 00 00 00 00 00
 3.650789 1  215             Rx   d 8 03 00 00 00 08 01 1F 03
 3.650978 1  315             Rx   d 8 82 FE FF FF 77 01 00 00
 3.651227 1  415             Rx   d 8 00 00 00 00 00 00 00 00
 3.651490 1  515             Rx   d 8 00 00 00 00 00 00 00 00
 3.660714 1  215             Rx   d 8 03 00 00 00 08 01 1F 03
 3.660895 1  315             Rx   d 8 85 FE FF FF 7E 01 00 00
 3.661145 1  415             Rx   d 8 00 00 00 00 00 00 00 00
 3.661458 1  515             Rx   d 8 00 00 00 00 00 00 00 00
 3.670763 1  215             Rx   d 8 03 00 00 00 08 01 1F 03
 3.670974 1  315             Rx   d 8 85 FE FF FF 7E 01 00 00
 3.671222 1  415             Rx   d 8 00 00 00 00 00 00 00 00
 3.671464 1  515             Rx   d 8 00 00 00 00 00 00 00 00
 3.680704 1  215             Rx   d 8 03 00 00 00 08 01 1F 03
 3.680893 1  315             Rx   d 8 86 FE FF FF 7E 01 00 00
 3.681148 1  415             Rx   d 8 00 00 00 00 00 00 00 00
 3.681462 1  515             Rx   d 8 00 00 00 00 00 00 00 00
 3.690796 1  215             Rx   d 8 03 00 00 00 08 01 1F 03
 3.690979 1  315             Rx   d 8 86 FE FF FF 7E 01 00 00
 3.691230 1  415             Rx   d 8 00 00 00 00 00 00 00 00
 3.691492 1  515             Rx   d 8 00 00 00 00 00 00 00 00
 3.700841 1  215             Rx   d 8 03 00 00 00 08 01 1F 03
 3.701078 1  315             Rx   d 8 89 FE FF FF 7F 01 00 00
 3.701327 1  415             Rx   d 8 00 00 00 00 00 00 00 00
 3.701593 1  515             Rx   d 8 00 00 00 00 00 00 00 00
 3.711129 1  215             Rx   d 8 03 00 00 00 08 01 1F 03
 3.711466 1  315             Rx   d 8 89 FE FF FF 7F 01 00 00
 3.711918 1  415             Rx   d 8 00 00 00 00 00 00 00 00
 3.712169 1  515             Rx   d 8 00 00 00 00 00 00 00 00
 3.720661 1  215             Rx   d 8 03 00 00 00 08 01 1F 03
 3.720924 1  315             Rx   d 8 8A FE FF FF 80 01 00 00
 3.721180 1  415             Rx   d 8 00 00 00 00 00 00 00 00
 3.721619 1  515             Rx   d 8 00 00 00 00 00 00 00 00
 3.730793 1  215             Rx   d 8 03 00 00 00 08 01 1F 03
 3.730975 1  315             Rx   d 8 8A FE FF FF 80 01 00 00
 3.731226 1  415             Rx   d 8 00 00 00 00 00 00 00 00
 3.731489 1  515             Rx   d 8 00 00 00 00 00 00 00 00
 3.740714 1  215             Rx   d 8 03 00 00 00 08 01 1F 03
 3.740893 1  315             Rx   d 8 86 FE FF FF 80 01 00 00
 3.741144 1  415             Rx   d 8 00 00 00 00 00 00 00 00
 3.741463 1  515             Rx   d 8 00 00 00 00 00 00 00 00
 3.750791 1  215             Rx   d 8 03 00 00 00 08 01 1F 03
 3.751027 1  315             Rx   d 8 86 FE FF FF 80 01 00 00
 3.751276 1  415             Rx   d 8 00 00 00 00 00 00 00 00
 3.751541 1  515             Rx   d 8 00 00 00 00 00 00 00 00
 3.760728 1  215             Rx   d 8 03 00 00 00 08 01 1F 03
 3.760923 1  315             Rx   d 8 82 FE FF FF 81 01 00 00
 3.761173 1  415             Rx   d 8 00 00 00 00 00 00 00 00
 3.761464 1  515             Rx   d 8 00 00 00 00 00 00 00 00
 3.770793 1  215             Rx   d 8 03 00 00 00 08 01 1F 03
 3.771004 1  315             Rx   d 8 82 FE FF FF 81 01 00 00
 3.771253 1  415             Rx   d 8 00 00 00 00 00 00 00 00
 3.771490 1  515             Rx   d 8 00 00 00 00 00 00 00 00
 3.780733 1  215             Rx   d 8 03 00 00 00 08 01 1F 03
 3.780919 1  315             Rx   d 8 86 FE FF FF 81 01 00 00
 3.781178 1  415             Rx   d 8 00 00 00 00 00 00 00 00
 3.781466 1  515             Rx   d 8 00 00 00 00 00 00 00 00
 3.791003 1  215             Rx   d 8 03 00 00 00 08 01 1F 03
 3.791194 1  315             Rx   d 8 86 FE FF FF 81 01 00 00
 3.791468 1  415             Rx   d 8 00 00 00 00 00 00 00 00
 3.791713 1  515             Rx   d 8 00 00 00 00 00 00 00 00
 3.800730 1  215             Rx   d 8 03 00 00 00 08 01 1F 03
 3.800922 1  315             Rx   d 8 86 FE FF FF 7D 01 00 00
 3.801178 1  415             Rx   d 8 00 00 00 00 00 00 00 00
 3.801466 1  515             Rx   d 8 00 00 00 00 00 00 00 00
 3.810819 1  215             Rx   d 8 03 00 00 00 08 01 1F 03
 3.811013 1  315             Rx   d 8 88 FE FF FF 7D 01 00 00
 3.811254 1  415             Rx   d 8 00 00 00 00 00 00 00 00
 3.811488 1  515             Rx   d 8 00 00 00 00 00 00 00 00
 3.820782 1  215             Rx   d 8 03 00 00 00 08 01 1F 03
 3.820973 1  315             Rx   d 8 89 FE FF FF 79 01 00 00
 3.821230 1  415             Rx   d 8 00 00 00 00 00 00 00 00
 3.821492 1  515             Rx   d 8 00 00 00 00 00 00 00 00
 3.830778 1  215             Rx   d 8 03 00 00 00 08 01 1F 03
 3.831246 1  315             Rx   d 8 89 FE FF FF 79 01 00 00
 3.831247 1  415             Rx   d 8 00 00 00 00 00 00 00 00
 3.831723 1  515             Rx   d 8 00 00 00 00 00 00 00 00
 3.840736 1  215             Rx   d 8 03 00 00 00 08 01 1F 03
 3.840946 1  315             Rx   d 8 8D FE FF FF 77 01 00 00
 3.841192 1  415             Rx   d 8 00 00 00 00 00 00 00 00
 3.841458 1  515             Rx   d 8 00 00 00 00 00 00 00 00
 3.850808 1  215             Rx   d 8 03 00 00 00 08 01 1F 03
 3.851032 1  315             Rx   d 8 8D FE FF FF 77 01 00 00
 3.851274 1  415             Rx   d 8 00 00 00 00 00 00 00 00
 3.851510 1  515             Rx   d 8 00 00 00 00 00 00 00 00
 3.860759 1  215             Rx   d 8 03 00 00 00 08 01 1F 03
 3.860945 1  315             Rx   d 8 90 FE FF FF 77 01 00 00
 3.861211 1  415             Rx   d 8 00 00 00 00 00 00 00 00
 3.861469 1  515             Rx   d 8 00 00 00 00 00 00 00 00
 3.871009 1  215             Rx   d 8 03 00 00 00 08 01 1F 03
 3.871251 1  315             Rx   d 8 90 FE FF FF 77 01 00 00
 3.871506 1  415             Rx   d 8 00 00 00 00 00 00 00 00
 3.871722 1  515             Rx   d 8 00 00 00 00 00 00 00 00
 3.880731 1  215             Rx   d 8 03 00 00 00 08 01 1F 03
 3.880947 1  315             Rx   d 8 90 FE FF FF 79 01 00 00
 3.881204 1  415             Rx   d 8 00 00 00 00 00 00 00 00
 3.881465 1  515             Rx   d 8 00 00 00 00 00 00 00 00
 3.890820 1  215             Rx   d 8 03 00 00 00 08 01 1F 03
 3.891037 1  315             Rx   d 8 8A FE FF FF 79 01 00 00
 3.891255 1  415             Rx   d 8 00 00 00 00 00 00 00 00
 3.891517 1  515             Rx   d 8 00 00 00 00 00 00 00 00
 3.900758 1  215             Rx   d 8 03 00 00 00 08 01 1F 03
 3.900941 1  315             Rx   d 8 81 FE FF FF 7F 01 00 00
 3.901200 1  415             Rx   d 8 00 00 00 00 00 00 00 00
 3.901465 1  515             Rx   d 8 00 00 00 00 00 00 00 00
 3.910767 1  215             Rx   d 8 03 00 00 00 08 01 1F 03
 3.911036 1  315             Rx   d 8 81 FE FF FF 7F 01 00 00
 3.911279 1  415             Rx   d 8 00 00 00 00 00 00 00 00
 3.911517 1  515             Rx   d 8 00 00 00 00 00 00 00 00
 3.920755 1  215             Rx   d 8 03 00 00 00 08 01 1F 03
 3.920938 1  315             Rx   d 8 81 FE FF FF 81 01 00 00
 3.921203 1  415             Rx   d 8 00 00 00 00 00 00 00 00
 3.921460 1  515             Rx   d 8 00 00 00 00 00 00 00 00
 3.930847 1  215             Rx   d 8 03 00 00 00 08 01 1F 03
 3.931032 1  315             Rx   d 8 81 FE FF FF 81 01 00 00
 3.931283 1  415             Rx   d 8 00 00 00 00 00 00 00 00
 3.931543 1  515             Rx   d 8 00 00 00 00 00 00 00 00
 3.940750 1  215             Rx   d 8 03 00 00 00 08 01 1F 03
 3.940965 1  315             Rx   d 8 82 FE FF FF 7D 01 00 00
 3.941224 1  415             Rx   d 8 00 00 00 00 00 00 00 00
 3.941464 1  515             Rx   d 8 00 00 00 00 00 00 00 00
 3.951219 1  215             Rx   d 8 03 00 00 00 08 01 1F 03
 3.951470 1  315             Rx   d 8 82 FE FF FF 7D 01 00 00
 3.951943 1  415             Rx   d 8 00 00 00 00 00 00 00 00
 3.952265 1  515             Rx   d 8 00 00 00 00 00 00 00 00
 3.960766 1  215             Rx   d 8 03 00 00 00 08 01 1F 03
 3.960996 1  315             Rx   d 8 82 FE FF FF 79 01 00 00
 3.961219 1  415             Rx   d 8 00 00 00 00 00 00 00 00
 3.961693 1  515             Rx   d 8 00 00 00 00 00 00 00 00
 3.970820 1  215             Rx   d 8 03 00 00 00 08 01 1F 03
 3.971053 1  315             Rx   d 8 82 FE FF FF 79 01 00 00
 3.971271 1  415             Rx   d 8 00 00 00 00 00 00 00 00
 3.971539 1  515             Rx   d 8 00 00 00 00 00 00 00 00
 3.980785 1  215             Rx   d 8 03 00 00 00 08 01 1F 03
 3.980975 1  315             Rx   d 8 85 FE FF FF 74 01 00 00
 3.981219 1  415             Rx   d 8 00 00 00 00 00 00 00 00
 3.981459 1  515             Rx   d 8 00 00 00 00 00 00 00 00
 3.990839 1  215             Rx   d 8 03 00 00 00 08 01 1F 03
 3.991046 1  315             Rx   d 8 85 FE FF FF 74 01 00 00
 3.991295 1  415             Rx   d 8 00 00 00 00 00 00 00 00
 3.991537 1  515             Rx   d 8 00 00 00 00 00 00 00 00
 4.000726 1  215             Rx   d 8 03 00 00 00 08 01 1F 03
 4.000967 1  315             Rx   d 8 87 FE FF FF 6F 01 00 00
 4.001235 1  415             Rx   d 8 00 00 00 00 00 00 00 00
 4.001456 1  515             Rx   d 8 00 00 00 00 00 00 00 00
 4.010834 1  215             Rx   d 8 03 00 00 00 08 01 1F 03
 4.011076 1  315             Rx   d 8 87 FE FF FF 6F 01 00 00
 4.011323 1  415             Rx   d 8 00 00 00 00 00 00 00 00
 4.011559 1  515             Rx   d 8 00 00 00 00 00 00 00 00
 4.020785 1  215             Rx   d 8 03 00 00 00 08 01 1F 03
 4.020968 1  315             Rx   d 8 88 FE FF FF 6C 01 00 00
 4.021236 1  415             Rx   d 8 00 00 00 00 00 00 00 00
 4.021459 1  515             Rx   d 8 00 00 00 00 00 00 00 00
 4.031036 1  215             Rx   d 8 03 00 00 00 08 01 1F 03
 4.031230 1  315             Rx   d 8 88 FE FF FF 6C 01 00 00
 4.031484 1  415             Rx   d 8 00 00 00 00 00 00 00 00
 4.031728 1  515             Rx   d 8 00 00 00 00 00 00 00 00
 4.040784 1  215             Rx   d 8 03 00 00 00 08 01 1F 03
 4.040970 1  315             Rx   d 8 88 FE FF FF 6C 01 00 00
 4.041254 1  415             Rx   d 8 00 00 00 00 00 00 00 00
 4.041489 1  515             Rx   d 8 00 00 00 00 00 00 00 00
